! NPort=8 DATA=1601 NOISE=0 GROUPDELAY=0
! NumOfBlock=1 NumOfParam=0
 
! .MODEL Smodel S TSTONEFILE=./sample1.s8p TYPE=S 
! + FBASE=  FMAX=
!   -- The above .MODEL line can be used for the S element in the netlist.
 
!
# Hz S RI R    50.0000    
   1.00000       0.125020E-01    0.227548E-05    0.987497       -0.227948E-05    0.447473E-06    0.306440E-06   -0.396261E-06   -0.305830E-06  
                 0.423194E-07    0.423570E-07   -0.423194E-07   -0.423493E-07    0.282887E-07    0.283142E-07   -0.282887E-07   -0.283098E-07  
                 0.987497       -0.227948E-05    0.125020E-01    0.227548E-05   -0.396261E-06   -0.305830E-06    0.447473E-06    0.306440E-06  
                -0.423194E-07   -0.423493E-07    0.423194E-07    0.423570E-07   -0.282887E-07   -0.283098E-07    0.282887E-07    0.283142E-07  
                 0.448572E-06    0.306440E-06   -0.395162E-06   -0.305830E-06    0.125020E-01    0.227674E-05    0.987497       -0.228074E-05  
                 0.712993E-07    0.713621E-07   -0.712993E-07   -0.713433E-07    0.420137E-07    0.420510E-07   -0.420137E-07   -0.420434E-07  
                -0.395162E-06   -0.305830E-06    0.448572E-06    0.306440E-06    0.987497       -0.228074E-05    0.125020E-01    0.227674E-05  
                -0.712993E-07   -0.713433E-07    0.712993E-07    0.713621E-07   -0.420137E-07   -0.420434E-07    0.420137E-07    0.420510E-07  
                 0.423194E-07    0.423570E-07   -0.423194E-07   -0.423493E-07    0.712993E-07    0.713621E-07   -0.712993E-07   -0.713433E-07  
                 0.125020E-01    0.227544E-05    0.987497       -0.227945E-05    0.444616E-06    0.303464E-06   -0.393165E-06   -0.302853E-06  
                -0.423194E-07   -0.423493E-07    0.423194E-07    0.423570E-07   -0.712993E-07   -0.713433E-07    0.712993E-07    0.713621E-07  
                 0.987497       -0.227945E-05    0.125020E-01    0.227544E-05   -0.393165E-06   -0.302853E-06    0.444617E-06    0.303464E-06  
                 0.282887E-07    0.283142E-07   -0.282887E-07   -0.283098E-07    0.420137E-07    0.420510E-07   -0.420137E-07   -0.420434E-07  
                 0.445622E-06    0.303464E-06   -0.392159E-06   -0.302853E-06    0.125020E-01    0.227104E-05    0.987497       -0.227504E-05  
                -0.282887E-07   -0.283098E-07    0.282887E-07    0.283142E-07   -0.420137E-07   -0.420434E-07    0.420137E-07    0.420510E-07  
                -0.392159E-06   -0.302853E-06    0.445624E-06    0.303464E-06    0.987497       -0.227504E-05    0.125020E-01    0.227104E-05  
 
  0.187500E+08   0.237991E-01    0.188995E-01    0.972479       -0.937094E-01    0.306479E-02    0.165199E-01   -0.205921E-02   -0.509614E-02  
                 0.294302E-03    0.840266E-03   -0.286078E-03   -0.696973E-03    0.201942E-03    0.567758E-03   -0.197374E-03   -0.484607E-03  
                 0.972479       -0.937094E-01    0.237991E-01    0.188995E-01   -0.205921E-02   -0.509614E-02    0.306479E-02    0.165199E-01  
                -0.286078E-03   -0.696973E-03    0.294302E-03    0.840266E-03   -0.197374E-03   -0.484607E-03    0.201942E-03    0.567758E-03  
                 0.306479E-02    0.165199E-01   -0.205921E-02   -0.509614E-02    0.238061E-01    0.189037E-01    0.972473       -0.937108E-01  
                 0.478572E-03    0.141677E-02   -0.454026E-03   -0.106715E-02    0.292675E-03    0.835401E-03   -0.284544E-03   -0.693251E-03  
                -0.205921E-02   -0.509614E-02    0.306479E-02    0.165199E-01    0.972473       -0.937108E-01    0.238061E-01    0.189037E-01  
                -0.454026E-03   -0.106715E-02    0.478572E-03    0.141677E-02   -0.284544E-03   -0.693251E-03    0.292675E-03    0.835401E-03  
                 0.294302E-03    0.840266E-03   -0.286078E-03   -0.696973E-03    0.478572E-03    0.141677E-02   -0.454026E-03   -0.106715E-02  
                 0.237986E-01    0.188815E-01    0.972479       -0.936982E-01    0.305049E-02    0.164983E-01   -0.204499E-02   -0.507667E-02  
                -0.286078E-03   -0.696973E-03    0.294302E-03    0.840266E-03   -0.454026E-03   -0.106715E-02    0.478572E-03    0.141677E-02  
                 0.972479       -0.936982E-01    0.237986E-01    0.188815E-01   -0.204499E-02   -0.507667E-02    0.305049E-02    0.164983E-01  
                 0.201942E-03    0.567758E-03   -0.197374E-03   -0.484607E-03    0.292675E-03    0.835401E-03   -0.284544E-03   -0.693251E-03  
                 0.305049E-02    0.164983E-01   -0.204499E-02   -0.507667E-02    0.237789E-01    0.188760E-01    0.972500       -0.936829E-01  
                -0.197374E-03   -0.484607E-03    0.201942E-03    0.567758E-03   -0.284544E-03   -0.693251E-03    0.292675E-03    0.835401E-03  
                -0.204499E-02   -0.507667E-02    0.305049E-02    0.164983E-01    0.972500       -0.936829E-01    0.237789E-01    0.188760E-01  
 
  0.375000E+08   0.317411E-01    0.307784E-01    0.955029       -0.179819        0.819685E-02    0.313995E-01   -0.447450E-02   -0.884414E-02  
                 0.647087E-03    0.149633E-02   -0.614571E-03   -0.121285E-02    0.450261E-03    0.100724E-02   -0.432197E-03   -0.842657E-03  
                 0.955029       -0.179819        0.317411E-01    0.307784E-01   -0.447450E-02   -0.884414E-02    0.819685E-02    0.313995E-01  
                -0.614571E-03   -0.121285E-02    0.647087E-03    0.149633E-02   -0.432197E-03   -0.842657E-03    0.450261E-03    0.100724E-02  
                 0.819685E-02    0.313995E-01   -0.447450E-02   -0.884414E-02    0.317536E-01    0.307817E-01    0.955017       -0.179816      
                 0.103303E-02    0.254060E-02   -0.936211E-03   -0.185167E-02    0.644101E-03    0.148746E-02   -0.611954E-03   -0.120622E-02  
                -0.447450E-02   -0.884414E-02    0.819685E-02    0.313995E-01    0.955017       -0.179816        0.317536E-01    0.307817E-01  
                -0.936211E-03   -0.185167E-02    0.103303E-02    0.254060E-02   -0.611954E-03   -0.120622E-02    0.644101E-03    0.148746E-02  
                 0.647087E-03    0.149633E-02   -0.614571E-03   -0.121285E-02    0.103303E-02    0.254060E-02   -0.936211E-03   -0.185167E-02  
                 0.317388E-01    0.307417E-01    0.955028       -0.179795        0.817423E-02    0.313646E-01   -0.445234E-02   -0.881352E-02  
                -0.614571E-03   -0.121285E-02    0.647087E-03    0.149633E-02   -0.936211E-03   -0.185167E-02    0.103303E-02    0.254060E-02  
                 0.955028       -0.179795        0.317388E-01    0.307417E-01   -0.445234E-02   -0.881352E-02    0.817423E-02    0.313646E-01  
                 0.450261E-03    0.100724E-02   -0.432197E-03   -0.842657E-03    0.644101E-03    0.148746E-02   -0.611954E-03   -0.120622E-02  
                 0.817423E-02    0.313646E-01   -0.445234E-02   -0.881352E-02    0.317118E-01    0.307432E-01    0.955059       -0.179777      
                -0.432197E-03   -0.842657E-03    0.450261E-03    0.100724E-02   -0.611954E-03   -0.120622E-02    0.644101E-03    0.148746E-02  
                -0.445234E-02   -0.881352E-02    0.817423E-02    0.313646E-01    0.955059       -0.179777        0.317118E-01    0.307432E-01  
 
  0.562500E+08   0.406471E-01    0.404196E-01    0.930886       -0.262640        0.157364E-01    0.449155E-01   -0.764764E-02   -0.117719E-01  
                 0.111522E-02    0.203614E-02   -0.104313E-02   -0.161830E-02    0.780126E-03    0.136191E-02   -0.740070E-03   -0.111911E-02  
                 0.930886       -0.262640        0.406471E-01    0.404196E-01   -0.764764E-02   -0.117719E-01    0.157364E-01    0.449155E-01  
                -0.104313E-02   -0.161830E-02    0.111522E-02    0.203614E-02   -0.740070E-03   -0.111911E-02    0.780126E-03    0.136191E-02  
                 0.157364E-01    0.449155E-01   -0.764764E-02   -0.117719E-01    0.406653E-01    0.404193E-01    0.930869       -0.262631      
                 0.176843E-02    0.349148E-02   -0.155476E-02   -0.248255E-02    0.111049E-02    0.202347E-02   -0.103921E-02   -0.160889E-02  
                -0.764764E-02   -0.117719E-01    0.157364E-01    0.449155E-01    0.930869       -0.262631        0.406653E-01    0.404193E-01  
                -0.155476E-02   -0.248255E-02    0.176843E-02    0.349148E-02   -0.103921E-02   -0.160889E-02    0.111049E-02    0.202347E-02  
                 0.111522E-02    0.203614E-02   -0.104313E-02   -0.161830E-02    0.176843E-02    0.349148E-02   -0.155476E-02   -0.248255E-02  
                 0.406410E-01    0.403631E-01    0.930887       -0.262603        0.157053E-01    0.448690E-01   -0.761756E-02   -0.117317E-01  
                -0.104313E-02   -0.161830E-02    0.111522E-02    0.203614E-02   -0.155476E-02   -0.248255E-02    0.176843E-02    0.349148E-02  
                 0.930887       -0.262603        0.406410E-01    0.403631E-01   -0.761756E-02   -0.117317E-01    0.157053E-01    0.448690E-01  
                 0.780126E-03    0.136191E-02   -0.740070E-03   -0.111911E-02    0.111049E-02    0.202347E-02   -0.103921E-02   -0.160889E-02  
                 0.157053E-01    0.448690E-01   -0.761756E-02   -0.117317E-01    0.406101E-01    0.403741E-01    0.930925       -0.262585      
                -0.740070E-03   -0.111911E-02    0.780126E-03    0.136191E-02   -0.103921E-02   -0.160889E-02    0.111049E-02    0.202347E-02  
                -0.761756E-02   -0.117317E-01    0.157053E-01    0.448690E-01    0.930925       -0.262585        0.406101E-01    0.403741E-01  
 
  0.750000E+08   0.506427E-01    0.481315E-01    0.900034       -0.342015        0.254370E-01    0.567630E-01   -0.114323E-01   -0.138144E-01  
                 0.167692E-02    0.244786E-02   -0.155110E-02   -0.190411E-02    0.117394E-02    0.162267E-02   -0.110402E-02   -0.130633E-02  
                 0.900034       -0.342015        0.506427E-01    0.481315E-01   -0.114323E-01   -0.138144E-01    0.254370E-01    0.567630E-01  
                -0.155110E-02   -0.190411E-02    0.167692E-02    0.244786E-02   -0.110402E-02   -0.130633E-02    0.117394E-02    0.162267E-02  
                 0.254370E-01    0.567630E-01   -0.114323E-01   -0.138144E-01    0.506660E-01    0.481250E-01    0.900013       -0.341998      
                 0.265739E-02    0.425296E-02   -0.228695E-02   -0.295166E-02    0.166994E-02    0.243157E-02   -0.154553E-02   -0.189198E-02  
                -0.114323E-01   -0.138144E-01    0.254370E-01    0.567630E-01    0.900013       -0.341998        0.506660E-01    0.481250E-01  
                -0.228695E-02   -0.295166E-02    0.265739E-02    0.425296E-02   -0.154553E-02   -0.189198E-02    0.166994E-02    0.243157E-02  
                 0.167692E-02    0.244786E-02   -0.155110E-02   -0.190411E-02    0.265739E-02    0.425296E-02   -0.228695E-02   -0.295166E-02  
                 0.506301E-01    0.480546E-01    0.900038       -0.341963        0.253963E-01    0.567060E-01   -0.113935E-01   -0.137654E-01  
                -0.155110E-02   -0.190411E-02    0.167692E-02    0.244786E-02   -0.228695E-02   -0.295166E-02    0.265739E-02    0.425296E-02  
                 0.900038       -0.341963        0.506301E-01    0.480546E-01   -0.113935E-01   -0.137654E-01    0.253963E-01    0.567060E-01  
                 0.117394E-02    0.162267E-02   -0.110402E-02   -0.130633E-02    0.166994E-02    0.243157E-02   -0.154553E-02   -0.189198E-02  
                 0.253963E-01    0.567060E-01   -0.113935E-01   -0.137654E-01    0.505982E-01    0.480762E-01    0.900082       -0.341947      
                -0.110402E-02   -0.130633E-02    0.117394E-02    0.162267E-02   -0.154553E-02   -0.189198E-02    0.166994E-02    0.243157E-02  
                -0.113935E-01   -0.137654E-01    0.253963E-01    0.567060E-01    0.900082       -0.341947        0.505982E-01    0.480762E-01  
 
  0.937500E+08   0.615993E-01    0.539573E-01    0.862756       -0.417534        0.369746E-01    0.666522E-01   -0.156406E-01   -0.149039E-01  
                 0.230379E-02    0.272079E-02   -0.211163E-02   -0.206211E-02    0.160961E-02    0.178225E-02   -0.150276E-02   -0.139843E-02  
                 0.862756       -0.417534        0.615993E-01    0.539573E-01   -0.156406E-01   -0.149039E-01    0.369746E-01    0.666522E-01  
                -0.211163E-02   -0.206211E-02    0.230379E-02    0.272079E-02   -0.150276E-02   -0.139843E-02    0.160961E-02    0.178225E-02  
                 0.369746E-01    0.666522E-01   -0.156406E-01   -0.149039E-01    0.616264E-01    0.539422E-01    0.862733       -0.417505      
                 0.366165E-02    0.480769E-02   -0.310060E-02   -0.324898E-02    0.229403E-02    0.270111E-02   -0.210396E-02   -0.204736E-02  
                -0.156406E-01   -0.149039E-01    0.369746E-01    0.666522E-01    0.862733       -0.417505        0.616264E-01    0.539422E-01  
                -0.310060E-02   -0.324898E-02    0.366165E-02    0.480769E-02   -0.210396E-02   -0.204736E-02    0.229403E-02    0.270111E-02  
                 0.230379E-02    0.272079E-02   -0.211163E-02   -0.206211E-02    0.366165E-02    0.480769E-02   -0.310060E-02   -0.324898E-02  
                 0.615767E-01    0.538597E-01    0.862766       -0.417465        0.369229E-01    0.665857E-01   -0.155919E-01   -0.148470E-01  
                -0.211163E-02   -0.206211E-02    0.230379E-02    0.272079E-02   -0.310060E-02   -0.324898E-02    0.366165E-02    0.480769E-02  
                 0.862766       -0.417465        0.615767E-01    0.538597E-01   -0.155919E-01   -0.148470E-01    0.369229E-01    0.665857E-01  
                 0.160961E-02    0.178225E-02   -0.150276E-02   -0.139843E-02    0.229403E-02    0.270111E-02   -0.210396E-02   -0.204736E-02  
                 0.369229E-01    0.665857E-01   -0.155919E-01   -0.148470E-01    0.615462E-01    0.538922E-01    0.862815       -0.417452      
                -0.150276E-02   -0.139843E-02    0.160961E-02    0.178225E-02   -0.210396E-02   -0.204736E-02    0.229403E-02    0.270111E-02  
                -0.155919E-01   -0.148470E-01    0.369229E-01    0.665857E-01    0.862815       -0.417452        0.615462E-01    0.538922E-01  
 
  0.112500E+09   0.733102E-01    0.578882E-01    0.819454       -0.488752        0.499784E-01    0.743469E-01   -0.200705E-01   -0.150027E-01  
                 0.296540E-02    0.284972E-02   -0.269620E-02   -0.208946E-02    0.206386E-02    0.183800E-02   -0.191409E-02   -0.139410E-02  
                 0.819454       -0.488752        0.733102E-01    0.578882E-01   -0.200705E-01   -0.150027E-01    0.499784E-01    0.743469E-01  
                -0.269620E-02   -0.208946E-02    0.296540E-02    0.284972E-02   -0.191409E-02   -0.139410E-02    0.206386E-02    0.183800E-02  
                 0.499784E-01    0.743469E-01   -0.200705E-01   -0.150027E-01    0.733393E-01    0.578624E-01    0.819430       -0.488711      
                 0.473895E-02    0.514470E-02   -0.396081E-02   -0.336975E-02    0.295228E-02    0.282698E-02   -0.268595E-02   -0.207223E-02  
                -0.200705E-01   -0.150027E-01    0.499784E-01    0.743469E-01    0.819430       -0.488711        0.733393E-01    0.578624E-01  
                -0.396081E-02   -0.336975E-02    0.473895E-02    0.514470E-02   -0.268595E-02   -0.207223E-02    0.295228E-02    0.282698E-02  
                 0.296540E-02    0.284972E-02   -0.269620E-02   -0.208946E-02    0.473895E-02    0.514470E-02   -0.396081E-02   -0.336975E-02  
                 0.732738E-01    0.577704E-01    0.819473       -0.488667        0.499138E-01    0.742722E-01   -0.200102E-01   -0.149388E-01  
                -0.269620E-02   -0.208946E-02    0.296540E-02    0.284972E-02   -0.396081E-02   -0.336975E-02    0.473895E-02    0.514470E-02  
                 0.819473       -0.488667        0.732738E-01    0.577704E-01   -0.200102E-01   -0.149388E-01    0.499138E-01    0.742722E-01  
                 0.206386E-02    0.183800E-02   -0.191409E-02   -0.139410E-02    0.295228E-02    0.282698E-02   -0.268595E-02   -0.207223E-02  
                 0.499138E-01    0.742722E-01   -0.200102E-01   -0.149388E-01    0.732471E-01    0.578137E-01    0.819527       -0.488657      
                -0.191409E-02   -0.139410E-02    0.206386E-02    0.183800E-02   -0.268595E-02   -0.207223E-02    0.295228E-02    0.282698E-02  
                -0.200102E-01   -0.149388E-01    0.499138E-01    0.742722E-01    0.819527       -0.488657        0.732471E-01    0.578137E-01  
 
  0.131250E+09   0.855401E-01    0.599176E-01    0.770597       -0.555254        0.640479E-01    0.796768E-01   -0.245183E-01   -0.141105E-01  
                 0.363161E-02    0.283566E-02   -0.327706E-02   -0.198934E-02    0.251413E-02    0.179231E-02   -0.231671E-02   -0.129695E-02  
                 0.770597       -0.555254        0.855401E-01    0.599176E-01   -0.245183E-01   -0.141105E-01    0.640479E-01    0.796768E-01  
                -0.327706E-02   -0.198934E-02    0.363161E-02    0.283566E-02   -0.231671E-02   -0.129695E-02    0.251413E-02    0.179231E-02  
                 0.640479E-01    0.796768E-01   -0.245183E-01   -0.141105E-01    0.855684E-01    0.598796E-01    0.770576       -0.555198      
                 0.584629E-02    0.526106E-02   -0.483306E-02   -0.331589E-02    0.361455E-02    0.281031E-02   -0.326369E-02   -0.196990E-02  
                -0.245183E-01   -0.141105E-01    0.640479E-01    0.796768E-01    0.770576       -0.555198        0.855684E-01    0.598796E-01  
                -0.483306E-02   -0.331589E-02    0.584629E-02    0.526106E-02   -0.326369E-02   -0.196990E-02    0.361455E-02    0.281031E-02  
                 0.363161E-02    0.283566E-02   -0.327706E-02   -0.198934E-02    0.584629E-02    0.526106E-02   -0.483306E-02   -0.331589E-02  
                 0.854856E-01    0.597811E-01    0.770628       -0.555152        0.639688E-01    0.795957E-01   -0.244447E-01   -0.140411E-01  
                -0.327706E-02   -0.198934E-02    0.363161E-02    0.283566E-02   -0.483306E-02   -0.331589E-02    0.584629E-02    0.526106E-02  
                 0.770628       -0.555152        0.854856E-01    0.597811E-01   -0.244447E-01   -0.140411E-01    0.639688E-01    0.795957E-01  
                 0.251413E-02    0.179231E-02   -0.231671E-02   -0.129695E-02    0.361455E-02    0.281031E-02   -0.326369E-02   -0.196990E-02  
                 0.639688E-01    0.795957E-01   -0.244447E-01   -0.140411E-01    0.854648E-01    0.598346E-01    0.770686       -0.555146      
                -0.231671E-02   -0.129695E-02    0.251413E-02    0.179231E-02   -0.326369E-02   -0.196990E-02    0.361455E-02    0.281031E-02  
                -0.244447E-01   -0.140411E-01    0.639688E-01    0.795957E-01    0.770686       -0.555146        0.854648E-01    0.598346E-01  
 
  0.150000E+09   0.980455E-01    0.600591E-01    0.716694       -0.616669        0.787682E-01    0.825417E-01   -0.287887E-01   -0.122650E-01  
                 0.427428E-02    0.268552E-02   -0.382889E-02   -0.177057E-02    0.293987E-02    0.165214E-02   -0.269162E-02   -0.111504E-02  
                 0.716694       -0.616669        0.980455E-01    0.600591E-01   -0.287887E-01   -0.122650E-01    0.787682E-01    0.825417E-01  
                -0.382889E-02   -0.177057E-02    0.427428E-02    0.268552E-02   -0.269162E-02   -0.111504E-02    0.293987E-02    0.165214E-02  
                 0.787682E-01    0.825417E-01   -0.287887E-01   -0.122650E-01    0.980701E-01    0.600080E-01    0.716678       -0.616598      
                 0.694224E-02    0.516174E-02   -0.568524E-02   -0.309574E-02    0.425274E-02    0.265809E-02   -0.381186E-02   -0.174929E-02  
                -0.287887E-01   -0.122650E-01    0.787682E-01    0.825417E-01    0.716678       -0.616598        0.980701E-01    0.600080E-01  
                -0.568524E-02   -0.309574E-02    0.694224E-02    0.516174E-02   -0.381186E-02   -0.174929E-02    0.425274E-02    0.265809E-02  
                 0.427428E-02    0.268552E-02   -0.382889E-02   -0.177057E-02    0.694224E-02    0.516174E-02   -0.568524E-02   -0.309574E-02  
