! Created Wed Jan 26 16:49:25 2011
# hz S ri R 50
! 3 Port Network Data from SP1.SP block
! freq  reS11  imS11  reS12  imS12  reS13  imS13  
!       reS21  imS21  
!       reS22  imS22  reS23  imS23  
!       reS31  imS31  reS32  imS32  
!       reS33  imS33  
!     
            100000      0.0487864024       0.0342698647        0.949011607       -0.112904777     -0.00961278393     -0.00555157651
                      0.948846457       -0.113823602       0.0444913958       0.0336937899       0.0102625228       0.0117560757
                   -0.00968407132     -0.00546197255       0.0102915224       0.0118724691       0.0477115757       0.0349853673

          42599500      0.0770555744      -0.0108990337       0.0637073865        0.503686459       0.0370818447      -0.0353932264
                     0.0637565705        0.503646006       0.0753699352      -0.0240811422       0.0758157566      -0.0157406845
                     0.0369400806      -0.0354384991       0.0758817468      -0.0158097351       0.0811559671      -0.0241678746

          85099000      0.0438225485      -0.0796928209       -0.409863148      -0.0605503692       0.0268902987       0.0517733179
                     -0.410081245      -0.0603185975       0.0622995694      -0.0680091604       0.0413308573      -0.0721641527
                     0.0269286091       0.0517325072       0.0412931038      -0.0721716443       0.0367672081       -0.070840568

         127598500    -0.00277818356       -0.105111651        0.154725917       -0.316273354      -0.0638310203      0.00790091254
                      0.154707738       -0.316342628     -0.00681706589      -0.0977356771     -0.00855927854      -0.0804785347
                    -0.0637886582      0.00790267746     -0.00857402463      -0.0804224473     -0.00143085642      -0.0872507379

         170098000     -0.0334908511        -0.09921237         0.21579368        0.208753334       0.0160726696      -0.0705295644
                      0.215770408        0.208854934      -0.0558666206       -0.119969769      -0.0593061215      -0.0777163887
                      0.016109032       -0.070535792      -0.0593576166      -0.0776511444       -0.077700977      -0.0926480252

         212597500      -0.121887622      -0.0337914329         -0.2318785        0.111329538       0.0662359993       0.0381897686
                     -0.231841863        0.111289542        -0.11813252      -0.0371031507       -0.103981778      -0.0295868322
                     0.0662420817       0.0381261399       -0.104010929       -0.029709366       -0.132377594      -0.0299498626

         255097000      -0.122617932       0.0331610928      -0.0165848694        -0.22159017      -0.0573817595       0.0523372732
                    -0.0167704977       -0.221617252       -0.129198518       0.0676197464        -0.10764131       0.0642957551
                    -0.0573284757       0.0523565329       -0.107688212       0.0643599869       -0.142420869       0.0495095299

         297596500     -0.0549949405        0.115514539        0.183408132       0.0594925995      -0.0308772245      -0.0661729959
                       0.18346256       0.0594773438      -0.0544615367        0.115843174      -0.0467661315        0.127374789
                     -0.030839266       -0.066209524       -0.046766747        0.127437646      -0.0587234287        0.155484186

         340096000      0.0276453209        0.152093705       -0.108548748        0.127244381       0.0720192822     -0.00526563684
                     -0.108415927         0.12724378       0.0517879927        0.135619631       0.0431372835        0.120088235
                     0.0720421496     -0.00525274915       0.0430741173        0.120203169       0.0575953675        0.150800427

         382595500        0.12420623       0.0821125494      -0.0641176506       -0.134917189      -0.0221377631        0.063161807
                    -0.0640704584       -0.134933895         0.14753269       0.0666948902        0.109200718       0.0636270837
                    -0.0221992477       0.0630578517        0.109140714       0.0636234331        0.129951726       0.0817655856

         425095000       0.157596446      -0.0255966695          0.1297396      -0.0057082264      -0.0525072558      -0.0433973525
                      0.129695075     -0.00573050331        0.176207196      -0.0431528638        0.145440148       -0.016814623
                     -0.052514135       -0.043462154        0.145503608      -0.0166627801        0.194595349      -0.0215363281

         467594500        0.12516549       -0.141598697      -0.0441952317        0.105762524       0.0544590709      -0.0320454762
                    -0.0442014227        0.105737912        0.104307938       -0.152558848       0.0997404477       -0.126759109
                     0.0543692912      -0.0320649438       0.0997255485       -0.126784062        0.145412437       -0.165781861

         510094000    -0.00212573758       -0.178774388      -0.0691435198      -0.0730438963      0.00850362357       0.0592258782
                    -0.0692150234      -0.0732061426      -0.0199894974       -0.179558027     -0.00435737044       -0.139833023
                    0.00855632868       0.0591124452     -0.00438218311       -0.139796156      -0.0280580347       -0.220112881

         552593500      -0.115792984        -0.14551855       0.0847482397      -0.0283718586      -0.0531304064      -0.0153687611
                     0.0847256939      -0.0283325759       -0.132566313       -0.128869197       -0.115734418       -0.110099596
                    -0.0531021955      -0.0153292696        -0.11575344       -0.110112688       -0.175889393       -0.156560912

         595093000      -0.174959352      -0.0144875771     -0.00958848961       0.0756384625       0.0349973074      -0.0435606965
                   -0.00960993581        0.075584525       -0.196485341      -0.0154723581       -0.141963448     -0.00593315332
                     0.0350191477      -0.0434968322       -0.141975661     -0.00599323927       -0.225338642     -0.00162746283

         637592500      -0.168955508        0.107439716      -0.0583282328      -0.0395152389       0.0223102844       0.0456628964
                    -0.0583790604      -0.0395898222       -0.129033374        0.122418142      -0.0942512458        0.081582256
                     0.0222924119       0.0455977629      -0.0942441463       0.0815884839       -0.115538676        0.141985406

         680092000     -0.0774417774        0.172905428       0.0522572946      -0.0251001279      -0.0515076093      0.00676199205
                     0.0522889785      -0.0250942903      -0.0235392925        0.202062107      -0.0201958508        0.109411403
                    -0.0515084473      0.00674271591      -0.0202329168        0.109231951      -0.0223685798        0.198530729

         722591500      0.0442245752        0.172119502     -0.00097980174       0.0618125196       0.0134447267      -0.0402248143
                   -0.00105709568       0.0617883291        0.080427553        0.144813316       0.0255262172        0.120791802
                     0.0135184326      -0.0401776993       0.0254205009        0.120713184       0.0355213442        0.138217603

         765091000       0.181431762       0.0785340398      -0.0478896205      -0.0260726562       0.0325473647       0.0251485485
                    -0.0479336606      -0.0262124747        0.204811385       0.0891218174        0.129657577       0.0776755012
                     0.0324771172       0.0251438508        0.129534904       0.0776450278        0.183945226        0.136454281

         807590500       0.182841317     -0.00015644287       0.0399989712      -0.0332379751       -0.035169494       0.0108766882
                     0.0400335527      -0.0332006301        0.196368641      -0.0950686417        0.126471245       0.0180345174
                    -0.0352676069       0.0109228817        0.126338152       0.0180691086        0.251101009      -0.0400333678

         850090000       0.127873393       -0.145848524      0.00879437247       0.0468142933   -2.32169165e-005      -0.0319153334
                     0.0088998608         0.04681948        0.129969368       -0.204198645       0.0900559402       -0.119263567
                 -8.55959512e-005      -0.0319039486       0.0901277146        -0.11908382        0.134241048       -0.274332192

         892589500      -0.010126664       -0.207290491       -0.041598364     -0.00965873881       0.0259964889       0.0178605462
                     -0.041687294     -0.00965017667        -0.04253634       -0.237615644       0.0169812185       -0.128918046
                     0.0259810311       0.0179101725       0.0170078814       -0.128877239       -0.108065454       -0.259990359

         935089000      -0.131890397        -0.16366855       0.0254968324      -0.0291258022      -0.0249280269       0.0161247507
                     0.0254811036      -0.0291067687       -0.176927657       -0.159343844      -0.0909232569       -0.111060013
                    -0.0248635668       0.0161132319      -0.0909100838       -0.111044318       -0.200724829       -0.154919088

         977588500      -0.261646274      -0.0253411643       0.0146115801       0.0323586686     -0.00172216545      -0.0286641835
                     0.0146005244       0.0322407179       -0.252546212       0.0352768799       -0.150750044      -0.0210939795
                   -0.00162007708       -0.028733085       -0.150722888      -0.0211438246       -0.253280868       0.0544101556

     1.020088e+009      -0.186589878        0.140345844      -0.0327053184     -0.00449112085       0.0255754432      0.00816916451
                    -0.0326450709     -0.00451495397       -0.175293865        0.198139247         -0.1319647       0.0769820722
                     0.0256284488      0.00806624187       -0.132039946       0.0768910477       -0.172531046        0.193987208

    1.0625875e+009      -0.012462425        0.241431637        0.016271092      -0.0259962717      -0.0191150111       0.0167277406
                     0.0162306519      -0.0260216642       0.0172205122        0.236666267       -0.071594368        0.125457228
                    -0.0191407686       0.0167002631      -0.0715495979        0.125492721      -0.0249768093        0.233577305

     1.105087e+009       0.154889354         0.18872523       0.0134967071       0.0250816554     -0.00733303619      -0.0215876966
                     0.0134868934       0.0251046587         0.16475779        0.184784597       0.0453695496        0.161196912
                   -0.00734953741      -0.0215940658        0.045511403        0.161390455        0.134086299        0.209840521

    1.1475865e+009       0.215535712       0.0502589336      -0.0266409734      0.00225330736       0.0228672747      0.00383274067
                    -0.0266386665      0.00218008055        0.249520207       0.0373834377         0.13039994       0.0792016976
                     0.0228548311       0.0038690134        0.130581109       0.0790683089        0.258106889       0.0639025349

     1.190086e+009        0.18467747        -0.11999796       0.0110417406      -0.0225090583        -0.01161642       0.0174461077
                     0.0108827921      -0.0223559938        0.192291107       -0.161966483        0.145784767      -0.0351420809
                    -0.0116672359       0.0173923012        0.145644756      -0.0354283759        0.241798992       -0.175826112

    1.2325855e+009      0.0465808988       -0.221357161       0.0148008254       0.0184941942     -0.00889153256      -0.0175931622
                     0.0148636627       0.0185805411       0.0359132297       -0.254376419       0.0880439845        -0.10293243
                   -0.00891247232      -0.0175532414       0.0878100712       -0.102856433       0.0402981283       -0.287677408

     1.275085e+009      -0.107524752       -0.187383098       -0.020963533      0.00435118452       0.0185279717     -0.00107562808
                    -0.0208631304      0.00435154309       -0.117125651        -0.23107714     0.000182346907       -0.131219561
                     0.0185778785      -0.0010517731    3.32025531e-005        -0.13101695        -0.13097286       -0.241366643

    1.3175845e+009       -0.20222253      -0.0666861204      0.00519286317      -0.0204714314     -0.00839197025       0.0145068873
                    0.00516316937      -0.0205302777       -0.215476281      -0.0919195353      -0.0872490089      -0.0993197554
                   -0.00836693969       0.0145203362      -0.0873136856      -0.0988638805       -0.268434611       -0.108248674

     1.360084e+009      -0.189887293       0.0982823687       0.0126798934       0.0132234546      -0.0108128523      -0.0127288507
                     0.0126100566       0.0132809971       -0.235263655       0.0795110939       -0.148054242      -0.0125841866
                    -0.0108150728      -0.0127660602       -0.147729239      -0.0126625258       -0.240685345        0.086051312

    1.4025835e+009     -0.0651461635         0.19465281      -0.0161043936      0.00668396583       0.0163185939     -0.00234909133
                    -0.0161729449      0.00668384593        -0.13493627        0.171362609       -0.111844944        0.083077622
                     0.0163156288     -0.00236536836       -0.111751741       0.0828538355       -0.128191404         0.20683942

     1.445083e+009      0.0894158291         0.19217101      0.00228011052      -0.0165030587     -0.00377000318       0.0130526751
                    0.00211799583       -0.016599374         0.10538371        0.246008452      -0.0267950605        0.114863354
                   -0.00371560935       0.0131570635      -0.0267576364        0.114711976      0.00729738559        0.248849258

    1.4875825e+009       0.171292958        0.108750401       0.0123305229      0.00861107426      -0.0107366764     -0.00874635836
                     0.0122420476      0.00860138159        0.209276967        0.118673282       0.0447997465       0.0726010663
                    -0.0107585327     -0.00880243367       0.0448351502       0.0726253931        0.196683912        0.118288084

     1.530082e+009       0.220077967       -0.047937883      -0.0117378777      0.00703583087       0.0134755771     -0.00418318972
                    -0.0118042816      0.00707347798        0.224972274      -0.0849665503       0.0488912171       0.0707828792
                     0.0134997613     -0.00413087267       0.0487739444       0.0706849111        0.192859354       0.0415818339

    1.5725815e+009       0.123317808       -0.181812525     -0.00226780814      -0.0136293535     -0.00123097281      0.00998000505
                   -0.00233157349      -0.0135933069        0.186642186       -0.174423714       0.0464567789     -0.00467177204
                   -0.00130970906      0.00997247684       0.0464802327     -0.00453868875        0.251967524        -0.13260825

     1.615081e+009     -0.0901714901       -0.161048383       0.0100056714      0.00814847026     -0.00840968405     -0.00711899551
                      0.010039191      0.00821229329      -0.0688572985       -0.219691658        0.107563261      -0.0845725869
                   -0.00838134239     -0.00703669586        0.107464947      -0.0848689655       -0.011062662       -0.246334927

    1.6575805e+009      -0.149205332      -0.0682337452     -0.00981895925       0.0065968977       0.0111254352     -0.00383894781
                   -0.00986806318      0.00662014385       -0.193833999       -0.143751323       0.0208509443       -0.105144015
                     0.0110945118     -0.00382291506       0.0208456732       -0.105164185       -0.149814479       -0.182679467

      1.70008e+009      -0.168383899       0.0557186246    -0.000894553128      -0.0110769422    -0.000480502717       0.0110427374
                  -0.000878175408      -0.0110222805       -0.193557592      -0.0233740279      -0.0573932396      -0.0806247609
                  -0.000421617292       0.0110346031      -0.0574853738      -0.0806841232       -0.232569809      -0.0467473173

    1.7425795e+009     -0.0830661544        0.136124271       0.0102267412       0.0034294289     -0.00832473932      -0.0062641249
                      0.010319703      0.00338132787       -0.106991425        0.122781045      -0.0796898024      -0.0418717976
                   -0.00837016633     -0.00624233914      -0.0797353014      -0.0420184936       -0.147843397        0.127826333

     1.785079e+009      0.0226719608        0.122650441     -0.00885411109      0.00553021342      0.00720935739     -0.00548448628
                   -0.00889961581      0.00559521551     -0.00134195963        0.139090122      -0.0992548839     -0.00856132472
                    0.00727920691     -0.00539231101      -0.0993594104     -0.00864319738       -0.033289659         0.13275918

    1.8275785e+009       0.110656503       0.0720501506     -0.00179644738     -0.00766569167      0.00125627338       0.0108328467
                    -0.0017390201     -0.00760100704       0.0706083994       0.0668270215        -0.10779391       0.0537701377
                    0.00137098784       0.0108350875       -0.107870563       0.0538010856       0.0111486264        0.134137167

     1.870078e+009       0.114580348      0.00198808437      0.00951853643      0.00274330131     -0.00768069176     -0.00373202876
                    0.00947830533      0.00276203153       0.0947011805       0.0170669738      -0.0372854842        0.128295688
                   -0.00769357284     -0.00373090428      -0.0372884664        0.128131523         0.10380711        0.109891903

    1.9125775e+009      0.0819526906      -0.0836546429     -0.00476321741      0.00407929872      0.00684308765     -0.00661095703
                   -0.00480238408      0.00399204509       0.0792400305      -0.0382034494       0.0544031311        0.113223712
                    0.00684421343     -0.00664284052       0.0543104785        0.113099698        0.144280698        0.010262141

     1.955077e+009    0.000152157158      -0.0931803679     -0.00509143535     -0.00691345592    -0.000126846908      0.00763281149
                   -0.00508575397     -0.00690521133       0.0629133466       -0.113957976        0.111942071       0.0732313546
                 -8.14690874e-005       0.0076645907        0.111963421       0.0732170017        0.123715925       -0.105411494

    1.9975765e+009     -0.0702834959      -0.0590026628      0.00821233294      0.00315070578     -0.00600771696    6.32085895e-005
                    0.00825877382      0.00324293498      -0.0173090833       -0.115656356        0.162501674      -0.0261226875
                   -0.00604189068    5.12714512e-005        0.162578796      -0.0261910145       0.0534996037       -0.131654089

     2.040076e+009     -0.0459251021       -0.038888377     -0.00321022418      0.00544201385       0.0060248926     -0.00585687576
                   -0.00326482946      0.00544874247        -0.06735868       -0.104424124        0.131767108        -0.14954198
                    0.00601080656     -0.00582089094        0.131592691       -0.149623994      -0.0421351824       -0.152070597

    2.0825755e+009      -0.125074176       0.0176450388     -0.00347712332     -0.00773554198      0.00173379024      0.00440926023
                   -0.00346111794      -0.0077090002        -0.13442193      -0.0458237987      -0.0425102975        -0.20864095
                    0.00170776619      0.00438557788      -0.0426954189       -0.208322569       -0.144311795       -0.144472074

     2.125075e+009      -0.115553388       0.0633509489      0.00477633297    -0.000950493745     -0.00747999293    -0.000616754885
