! Created Thu Jan 13 12:57:19 2011
# hz S ma R 50
! 2 Port Network Data from SP1.SP block
! freq  magS11  angS11  magS21  angS21  magS12  angS12  magS22  angS22  
!     
                 0    2.0199659e-006                  0         0.99999798                  0         0.99999798                  0     2.0199659e-006                  0
           1000000     0.00261796768         88.8900009        0.999996573       -0.749999109        0.999996573       -0.749999109      0.00261796768         89.6100009
           2000000     0.00523577818         87.7800071        0.999986293        -1.49999287        0.999986293        -1.49999287      0.00523577818         89.2200071
           3000000     0.00785327437         86.6700241        0.999969163        -2.24997595        0.999969163        -2.24997595      0.00785327437         88.8300241
           4000000      0.0104702991          85.560057        0.999945185        -2.99994299        0.999945185        -2.99994299       0.0104702991          88.440057
           5000000      0.0130866955         84.4501113        0.999914366        -3.74988866        0.999914366        -3.74988866       0.0130866955         88.0501113
           6000000      0.0157023066         83.3401924        0.999876711        -4.49980763        0.999876711        -4.49980763       0.0157023066         87.6601924
           7000000      0.0183169757         82.2303054         0.99983223        -5.24969456         0.99983223        -5.24969456       0.0183169757         87.2703054
           8000000      0.0209305464         81.1204558        0.999780932        -5.99954416        0.999780932        -5.99954416       0.0209305464         86.8804558
           9000000      0.0235428621         80.0106489        0.999722828        -6.74935109        0.999722828        -6.74935109       0.0235428621         86.4906489
          10000000       0.026153767         78.9008899        0.999657932        -7.49911006        0.999657932        -7.49911006        0.026153767         86.1008899
          11000000      0.0287631052         77.7911842        0.999586256        -8.24881579        0.999586256        -8.24881579       0.0287631052         85.7111842
          12000000      0.0313707213          76.681537        0.999507818          -8.998463        0.999507818          -8.998463       0.0313707213          85.321537
          13000000      0.0339764599         75.5719536        0.999422633        -9.74804643        0.999422633        -9.74804643       0.0339764599         84.9319536
          14000000      0.0365801665         74.4624392        0.999330722        -10.4975608        0.999330722        -10.4975608       0.0365801665         84.5424392
          15000000      0.0391816866          73.352999        0.999232103         -11.247001        0.999232103         -11.247001       0.0391816866          84.152999
          16000000      0.0417808662         72.2436384        0.999126798        -11.9963616        0.999126798        -11.9963616       0.0417808662         83.7636384
          17000000      0.0443775518         71.1343624        0.999014831        -12.7456376        0.999014831        -12.7456376       0.0443775518         83.3743624
          18000000      0.0469715904         70.0251762        0.998896226        -13.4948238        0.998896226        -13.4948238       0.0469715904         82.9851762
          19000000      0.0495628294          68.916085        0.998771008         -14.243915        0.998771008         -14.243915       0.0495628294          82.596085
          20000000      0.0521511169          67.807094        0.998639205         -14.992906        0.998639205         -14.992906       0.0521511169          82.207094
          21000000      0.0547363015         66.6982081        0.998500845        -15.7417919        0.998500845        -15.7417919       0.0547363015         81.8182081
          22000000      0.0573182324         65.5894326        0.998355959        -16.4905674        0.998355959        -16.4905674       0.0573182324         81.4294326
          23000000      0.0598967593         64.4807724        0.998204577        -17.2392276        0.998204577        -17.2392276       0.0598967593         81.0407724
          24000000      0.0624717327         63.3722326        0.998046734        -17.9877674        0.998046734        -17.9877674       0.0624717327         80.6522326
          25000000      0.0650430038         62.2638182        0.997882462        -18.7361818        0.997882462        -18.7361818       0.0650430038         80.2638182
          26000000      0.0676104243         61.1555341        0.997711797        -19.4844659        0.997711797        -19.4844659       0.0676104243         79.8755341
          27000000      0.0701738469         60.0473853        0.997534777        -20.2326147        0.997534777        -20.2326147       0.0701738469         79.4873853
          28000000      0.0727331249         58.9393767        0.997351439        -20.9806233        0.997351439        -20.9806233       0.0727331249         79.0993767
          29000000      0.0752881123         57.8315132        0.997161822        -21.7284868        0.997161822        -21.7284868       0.0752881123         78.7115132
          30000000      0.0778386641         56.7237996        0.996965969        -22.4762004        0.996965969        -22.4762004       0.0778386641         78.3237996
          31000000       0.080384636         55.6162407        0.996763919        -23.2237593        0.996763919        -23.2237593        0.080384636         77.9362407
          32000000      0.0829258845         54.5088413        0.996555717        -23.9711587        0.996555717        -23.9711587       0.0829258845         77.5488413
          33000000      0.0854622673         53.4016061        0.996341408        -24.7183939        0.996341408        -24.7183939       0.0854622673         77.1616061
          34000000      0.0879936425         52.2945398        0.996121036        -25.4654602        0.996121036        -25.4654602       0.0879936425         76.7745398
          35000000      0.0905198696         51.1876471         0.99589465        -26.2123529         0.99589465        -26.2123529       0.0905198696         76.3876471
          36000000      0.0930408087         50.0809326        0.995662296        -26.9590674        0.995662296        -26.9590674       0.0930408087         76.0009326
          37000000       0.095556321         48.9744008        0.995424025        -27.7055992        0.995424025        -27.7055992        0.095556321         75.6144008
          38000000      0.0980662688         47.8680563        0.995179887        -28.4519437        0.995179887        -28.4519437       0.0980662688         75.2280563
          39000000       0.100570515         46.7619035        0.994929933        -29.1980965        0.994929933        -29.1980965        0.100570515         74.8419035
          40000000       0.103068924          45.655947        0.994674216         -29.944053        0.994674216         -29.944053        0.103068924          74.455947
          41000000       0.105561362         44.5501911        0.994412791        -30.6898089        0.994412791        -30.6898089        0.105561362         74.0701911
          42000000       0.108047694         43.4446401        0.994145712        -31.4353599        0.994145712        -31.4353599        0.108047694         73.6846401
          43000000       0.110527787         42.3392985        0.993873034        -32.1807015        0.993873034        -32.1807015        0.110527787         73.2992985
          44000000       0.113001512         41.2341703        0.993594816        -32.9258297        0.993594816        -32.9258297        0.113001512         72.9141703
          45000000       0.115468736         40.1292599        0.993311115        -33.6707401        0.993311115        -33.6707401        0.115468736         72.5292599
          46000000       0.117929331         39.0245715         0.99302199        -34.4154285         0.99302199        -34.4154285        0.117929331         72.1445715
          47000000       0.120383169          37.920109        0.992727502         -35.159891        0.992727502         -35.159891        0.120383169          71.760109
          48000000       0.122830124         36.8158767        0.992427711        -35.9041233        0.992427711        -35.9041233        0.122830124         71.3758767
          49000000       0.125270068         35.7118784        0.992122679        -36.6481216        0.992122679        -36.6481216        0.125270068         70.9918784
          50000000       0.127702878         34.6081182         0.99181247        -37.3918818         0.99181247        -37.3918818        0.127702878         70.6081182
          51000000       0.130128431            33.5046        0.991497146           -38.1354        0.991497146           -38.1354        0.130128431            70.2246
          52000000       0.132546605         32.4013275        0.991176774        -38.8786725        0.991176774        -38.8786725        0.132546605         69.8413275
          53000000       0.134957278         31.2983047        0.990851418        -39.6216953        0.990851418        -39.6216953        0.134957278         69.4583047
          54000000       0.137360332         30.1955353        0.990521145        -40.3644647        0.990521145        -40.3644647        0.137360332         69.0755353
          55000000       0.139755647         29.0930229        0.990186022        -41.1069771        0.990186022        -41.1069771        0.139755647         68.6930229
          56000000       0.142143108         27.9907712        0.989846118        -41.8492288        0.989846118        -41.8492288        0.142143108         68.3107712
          57000000       0.144522598         26.8887837          0.9895015        -42.5912163          0.9895015        -42.5912163        0.144522598         67.9287837
          58000000       0.146894003          25.787064        0.989152239         -43.332936        0.989152239         -43.332936        0.146894003          67.547064
          59000000        0.14925721         24.6856156        0.988798405        -44.0743844        0.988798405        -44.0743844         0.14925721         67.1656156
          60000000       0.151612108         23.5844417        0.988440068        -44.8155583        0.988440068        -44.8155583        0.151612108         66.7844417
          61000000       0.153958585         22.4835459        0.988077302        -45.5564541        0.988077302        -45.5564541        0.153958585         66.4035459
          62000000       0.156296532         21.3829314        0.987710177        -46.2970686        0.987710177        -46.2970686        0.156296532         66.0229314
          63000000       0.158625843         20.2826013        0.987338768        -47.0373987        0.987338768        -47.0373987        0.158625843         65.6426013
          64000000       0.160946411         19.1825589        0.986963147        -47.7774411        0.986963147        -47.7774411        0.160946411         65.2625589
          65000000        0.16325813         18.0828072        0.986583389        -48.5171928        0.986583389        -48.5171928         0.16325813         64.8828072
          66000000       0.165560897         16.9833494        0.986199569        -49.2566506        0.986199569        -49.2566506        0.165560897         64.5033494
          67000000        0.16785461         15.8841884        0.985811762        -49.9958116        0.985811762        -49.9958116         0.16785461         64.1241884
          68000000       0.170139168          14.785327        0.985420044         -50.734673        0.985420044         -50.734673        0.170139168          63.745327
          69000000       0.172414471         13.6867682        0.985024492        -51.4732318        0.985024492        -51.4732318        0.172414471         63.3667682
          70000000       0.174680422         12.5885148        0.984625183        -52.2114852        0.984625183        -52.2114852        0.174680422         62.9885148
          71000000       0.176936923         11.4905695        0.984222193        -52.9494305        0.984222193        -52.9494305        0.176936923         62.6105695
          72000000       0.179183879         10.3929349        0.983815601        -53.6870651        0.983815601        -53.6870651        0.179183879         62.2329349
          73000000       0.181421197         9.29561366        0.983405486        -54.4243863        0.983405486        -54.4243863        0.181421197         61.8556137
          74000000       0.183648784         8.19860836        0.982991925        -55.1613916        0.982991925        -55.1613916        0.183648784         61.4786084
          75000000       0.185866548         7.10192144        0.982574998        -55.8980786        0.982574998        -55.8980786        0.185866548         61.1019214
          76000000         0.1880744         6.00555533        0.982154784        -56.6344447        0.982154784        -56.6344447          0.1880744         60.7255553
          77000000       0.190272251         4.90951236        0.981731364        -57.3704876        0.981731364        -57.3704876        0.190272251         60.3495124
          78000000       0.192460015         3.81379483        0.981304816        -58.1062052        0.981304816        -58.1062052        0.192460015         59.9737948
          79000000       0.194637606         2.71840496        0.980875223         -58.841595        0.980875223         -58.841595        0.194637606          59.598405
          80000000        0.19680494          1.6233449        0.980442663        -59.5766551        0.980442663        -59.5766551         0.19680494         59.2233449
          81000000       0.198961934        0.528616748        0.980007219        -60.3113833        0.980007219        -60.3113833        0.198961934         58.8486167
          82000000       0.201108506       -0.565777472        0.979568971        -61.0457775        0.979568971        -61.0457775        0.201108506         58.4742225
          83000000       0.203244578         -1.6598358        0.979128001        -61.7798358        0.979128001        -61.7798358        0.203244578         58.1001642
          84000000       0.205370069        -2.75355633         0.97868439        -62.5135563         0.97868439        -62.5135563        0.205370069         57.7264437
          85000000       0.207484903        -3.84693724         0.97823822        -63.2469372         0.97823822        -63.2469372        0.207484903         57.3530628
          86000000       0.209589005        -4.93997676        0.977789573        -63.9799768        0.977789573        -63.9799768        0.209589005         56.9800232
          87000000       0.211682299         -6.0326732        0.977338531        -64.7126732        0.977338531        -64.7126732        0.211682299         56.6073268
          88000000       0.213764713         -7.1250249        0.976885176        -65.4450249        0.976885176        -65.4450249        0.213764713         56.2349751
          89000000       0.215836174        -8.21703031        0.976429591        -66.1770303        0.976429591        -66.1770303        0.215836174         55.8629697
          90000000       0.217896613        -9.30868791        0.975971857        -66.9086879        0.975971857        -66.9086879        0.217896613         55.4913121
          91000000       0.219945961        -10.3999963        0.975512057        -67.6399963        0.975512057        -67.6399963        0.219945961         55.1200037
          92000000       0.221984149         -11.490954        0.975050274         -68.370954        0.975050274         -68.370954        0.221984149          54.749046
          93000000       0.224011112        -12.5815598         0.97458659        -69.1015598         0.97458659        -69.1015598        0.224011112         54.3784402
          94000000       0.226026784        -13.6718124        0.974121087        -69.8318124        0.974121087        -69.8318124        0.226026784         54.0081876
          95000000       0.228031102        -14.7617107        0.973653848        -70.5617107        0.973653848        -70.5617107        0.228031102         53.6382893
          96000000       0.230024003        -15.8512535        0.973184956        -71.2912535        0.973184956        -71.2912535        0.230024003         53.2687465
          97000000       0.232005427        -16.9404398        0.972714492        -72.0204398        0.972714492        -72.0204398        0.232005427         52.8995602
          98000000       0.233975313        -18.0292685        0.972242538        -72.7492685        0.972242538        -72.7492685        0.233975313         52.5307315
          99000000       0.235933603        -19.1177388        0.971769178        -73.4777388        0.971769178        -73.4777388        0.235933603         52.1622612
         100000000       0.237880241        -20.2058498        0.971294492        -74.2058498        0.971294492        -74.2058498        0.237880241         51.7941502
         101000000        0.23981517        -21.2936007        0.970818564        -74.9336007        0.970818564        -74.9336007         0.23981517         51.4263993
         102000000       0.241738335        -22.3809907        0.970341475        -75.6609907        0.970341475        -75.6609907        0.241738335         51.0590093
         103000000       0.243649683        -23.4680193        0.969863306        -76.3880193        0.969863306        -76.3880193        0.243649683         50.6919807
         104000000       0.245549162        -24.5546857        0.969384139        -77.1146857        0.969384139        -77.1146857        0.245549162         50.3253143
         105000000       0.247436721        -25.6409895        0.968904056        -77.8409895        0.968904056        -77.8409895        0.247436721         49.9590105
         106000000        0.24931231        -26.7269301        0.968423137        -78.5669301        0.968423137        -78.5669301         0.24931231         49.5930699
         107000000       0.251175882        -27.8125072        0.967941463        -79.2925072        0.967941463        -79.2925072        0.251175882         49.2274928
         108000000       0.253027387        -28.8977203        0.967459116        -80.0177203        0.967459116        -80.0177203        0.253027387         48.8622797
         109000000       0.254866782        -29.9825692        0.966976175        -80.7425692        0.966976175        -80.7425692        0.254866782         48.4974308
         110000000       0.256694019        -31.0670537        0.966492721        -81.4670537        0.966492721        -81.4670537        0.256694019         48.1329463
         111000000       0.258509057        -32.1511736        0.966008834        -82.1911736        0.966008834        -82.1911736        0.258509057         47.7688264
         112000000       0.260311852        -33.2349287        0.965524593        -82.9149287        0.965524593        -82.9149287        0.260311852         47.4050713
         113000000       0.262102362         -34.318319        0.965040078         -83.638319        0.965040078         -83.638319        0.262102362          47.041681
         114000000       0.263880548        -35.4013445        0.964555367        -84.3613445        0.964555367        -84.3613445        0.263880548         46.6786555
         115000000        0.26564637        -36.4840053         0.96407054        -85.0840053         0.96407054        -85.0840053         0.26564637         46.3159947
