!Agilent Technologies,E5071C,MY46106673,A.09.22
!Date: Wed Jun 23 10:33:02 2010
!Data & Calibration Information:
!Freq	S11:SOLT4(ON)	S12:SOLT4(ON)	S13:SOLT4(ON)	S14:SOLT4(ON)
!	S21:SOLT4(ON)	S22:SOLT4(ON)	S23:SOLT4(ON)	S24:SOLT4(ON)
!	S31:SOLT4(ON)	S32:SOLT4(ON)	S33:SOLT4(ON)	S34:SOLT4(ON)
!	S41:SOLT4(ON)	S42:SOLT4(ON)	S43:SOLT4(ON)	S44:SOLT4(ON)
# Hz S dB R 50
100000	-2.880661e+001	-1.240540e+002	-6.769232e+001	-2.395749e+001	-2.347155e-001	1.720371e+000	-6.950222e+001	-7.851743e+001
	-6.894200e+001	-8.776215e+000	-2.806966e+001	-1.260786e+002	-7.067943e+001	-5.584436e+001	-2.558356e-001	1.654739e+000
	-2.406081e-001	1.642648e+000	-6.965739e+001	-1.422426e+001	-2.951012e+001	-1.287311e+002	-6.868650e+001	1.762745e+002
	-6.484404e+001	1.627490e+002	-2.471942e-001	1.643172e+000	-7.378923e+001	9.512251e-001	-2.935962e+001	-1.243463e+002
25099500	-4.057449e+001	6.281558e+001	-4.424792e+001	8.120257e+001	-1.266469e-001	-6.219979e+000	-5.930280e+001	-1.282974e+002
	-4.420338e+001	8.060277e+001	-3.725553e+001	8.526927e+001	-6.125060e+001	-1.025421e+002	-1.412922e-001	-6.099748e+000
	-1.330962e-001	-6.184527e+000	-6.075559e+001	-1.079265e+002	-4.052182e+001	6.008375e+001	-4.403540e+001	8.397936e+001
	-5.852443e+001	-1.283597e+002	-1.339338e-001	-6.232877e+000	-4.412835e+001	8.379492e+001	-3.542600e+001	8.386655e+001
50099000	-5.171084e+001	-1.622522e+000	-3.851804e+001	7.144201e+001	-1.510087e-001	-1.325379e+001	-5.365617e+001	-1.100726e+002
	-3.856609e+001	7.212632e+001	-3.871041e+001	-8.175222e+001	-5.350626e+001	-1.024609e+002	-1.522060e-001	-1.318971e+001
	-1.486593e-001	-1.324415e+001	-5.319592e+001	-9.958100e+001	-5.661367e+001	-5.676047e+001	-3.842938e+001	7.717365e+001
	-5.355471e+001	-1.134076e+002	-1.426375e-001	-1.315012e+001	-3.843415e+001	7.727960e+001	-3.890820e+001	-9.181720e+001
75098500	-3.782518e+001	-6.109416e+001	-3.521703e+001	6.418304e+001	-2.213559e-001	-1.979329e+001	-4.996714e+001	-1.073135e+002
	-3.522575e+001	6.430114e+001	-3.321916e+001	-9.117407e+001	-5.024469e+001	-1.061844e+002	-2.195822e-001	-1.973706e+001
	-2.211853e-001	-1.979735e+001	-4.989738e+001	-1.037458e+002	-3.862625e+001	-8.611597e+001	-3.504984e+001	7.284798e+001
	-5.019221e+001	-1.114990e+002	-2.126196e-001	-1.970480e+001	-3.505797e+001	7.291706e+001	-3.210239e+001	-1.069000e+002
100098000	-2.866716e+001	-8.871026e+001	-3.296688e+001	5.693715e+001	-2.897190e-001	-2.614422e+001	-4.770960e+001	-1.092682e+002
	-3.296172e+001	5.698320e+001	-2.924347e+001	-9.023232e+001	-4.776991e+001	-1.027058e+002	-2.857530e-001	-2.609316e+001
	-2.889352e-001	-2.613563e+001	-4.761102e+001	-1.047513e+002	-2.811061e+001	-1.152793e+002	-3.273300e+001	6.793275e+001
	-4.767835e+001	-1.073281e+002	-2.784604e-001	-2.603440e+001	-3.270975e+001	6.812535e+001	-2.833146e+001	-1.117468e+002
125097500	-2.659937e+001	-9.332481e+001	-3.124321e+001	4.958812e+001	-3.516729e-001	-3.237438e+001	-4.555516e+001	-1.112098e+002
	-3.122220e+001	4.968046e+001	-2.650186e+001	-9.469051e+001	-4.520700e+001	-1.073227e+002	-3.510821e-001	-3.226836e+001
	-3.499285e-001	-3.237983e+001	-4.522367e+001	-1.077959e+002	-2.571533e+001	-1.245505e+002	-3.087539e+001	6.330261e+001
	-4.552953e+001	-1.100218e+002	-3.392753e-001	-3.229454e+001	-3.086950e+001	6.324760e+001	-2.596549e+001	-1.246884e+002
150097000	-2.512297e+001	-9.459088e+001	-2.984554e+001	4.232375e+001	-4.065047e-001	-3.856392e+001	-4.348361e+001	-1.109834e+002
	-2.985602e+001	4.246461e+001	-2.436678e+001	-9.983182e+001	-4.354625e+001	-1.122238e+002	-4.091131e-001	-3.853056e+001
	-4.079378e-001	-3.862599e+001	-4.326877e+001	-1.096277e+002	-2.545958e+001	-1.364566e+002	-2.943002e+001	5.851392e+001
	-4.348034e+001	-1.134570e+002	-3.959373e-001	-3.854752e+001	-2.944068e+001	5.860383e+001	-2.360625e+001	-1.360017e+002
175096500	-2.294798e+001	-1.025164e+002	-2.873028e+001	3.512161e+001	-4.622115e-001	-4.472992e+001	-4.158487e+001	-1.156365e+002
	-2.873196e+001	3.522546e+001	-2.285021e+001	-1.043104e+002	-4.149572e+001	-1.138618e+002	-4.640047e-001	-4.471980e+001
	-4.628511e-001	-4.478677e+001	-4.144059e+001	-1.142223e+002	-2.218283e+001	-1.457588e+002	-2.821510e+001	5.405359e+001
	-4.157663e+001	-1.156451e+002	-4.562051e-001	-4.469471e+001	-2.823401e+001	5.414162e+001	-2.200887e+001	-1.467580e+002
200096000	-2.168441e+001	-1.098105e+002	-2.777490e+001	2.801821e+001	-5.193539e-001	-5.091927e+001	-3.981233e+001	-1.199801e+002
	-2.775925e+001	2.801024e+001	-2.156724e+001	-1.099822e+002	-3.967119e+001	-1.185612e+002	-5.254998e-001	-5.082546e+001
	-5.174887e-001	-5.093055e+001	-3.976221e+001	-1.190177e+002	-2.058332e+001	-1.582078e+002	-2.720348e+001	4.948190e+001
	-3.983903e+001	-1.197817e+002	-5.177669e-001	-5.084849e+001	-2.719785e+001	4.945045e+001	-2.055325e+001	-1.569329e+002
225095500	-2.069429e+001	-1.129210e+002	-2.701065e+001	2.078512e+001	-5.820319e-001	-5.704796e+001	-3.836918e+001	-1.260556e+002
	-2.700740e+001	2.076907e+001	-2.037008e+001	-1.148268e+002	-3.822708e+001	-1.247805e+002	-5.871427e-001	-5.696592e+001
	-5.822542e-001	-5.704505e+001	-3.823998e+001	-1.244857e+002	-1.952231e+001	-1.684369e+002	-2.630964e+001	4.484811e+001
	-3.835695e+001	-1.259467e+002	-5.813793e-001	-5.699912e+001	-2.630483e+001	4.483580e+001	-1.942259e+001	-1.689860e+002
250095000	-1.987853e+001	-1.183067e+002	-2.631586e+001	1.374071e+001	-6.384745e-001	-6.318815e+001	-3.689772e+001	-1.328299e+002
	-2.633542e+001	1.367058e+001	-1.976495e+001	-1.199658e+002	-3.683435e+001	-1.315184e+002	-6.546696e-001	-6.300244e+001
	-6.368581e-001	-6.317381e+001	-3.686040e+001	-1.315843e+002	-1.850652e+001	-1.780695e+002	-2.552917e+001	4.034965e+001
	-3.695051e+001	-1.325150e+002	-6.484138e-001	-6.300383e+001	-2.553515e+001	4.037926e+001	-1.843082e+001	-1.783247e+002
275094500	-1.886209e+001	-1.234190e+002	-2.575656e+001	6.621850e+000	-6.889747e-001	-6.931260e+001	-3.574129e+001	-1.390973e+002
	-2.575422e+001	6.618866e+000	-1.899666e+001	-1.240998e+002	-3.567666e+001	-1.376144e+002	-7.043989e-001	-6.902627e+001
	-6.958341e-001	-6.930301e+001	-3.565692e+001	-1.384969e+002	-1.760107e+001	1.725328e+002	-2.484158e+001	3.585942e+001
	-3.580290e+001	-1.383993e+002	-6.984344e-001	-6.902167e+001	-2.483624e+001	3.576793e+001	-1.765268e+001	1.719182e+002
300094000	-1.832198e+001	-1.275892e+002	-2.527918e+001	-6.653821e-001	-7.505351e-001	-7.539059e+001	-3.464174e+001	-1.460474e+002
	-2.527074e+001	-5.879125e-001	-1.828989e+001	-1.277881e+002	-3.452466e+001	-1.448283e+002	-7.552754e-001	-7.511136e+001
	-7.518413e-001	-7.535504e+001	-3.450621e+001	-1.454284e+002	-1.675016e+001	1.626920e+002	-2.421703e+001	3.140262e+001
	-3.456670e+001	-1.460878e+002	-7.468164e-001	-7.512079e+001	-2.420478e+001	3.124398e+001	-1.673243e+001	1.632082e+002
325093500	-1.763521e+001	-1.325706e+002	-2.488052e+001	-7.700653e+000	-8.131476e-001	-8.150030e+001	-3.357864e+001	-1.531664e+002
	-2.487778e+001	-7.672026e+000	-1.782682e+001	-1.313772e+002	-3.348273e+001	-1.523145e+002	-8.178616e-001	-8.115358e+001
	-8.140950e-001	-8.142583e+001	-3.356613e+001	-1.531861e+002	-1.600401e+001	1.538688e+002	-2.365810e+001	2.689315e+001
	-3.353068e+001	-1.531355e+002	-8.034090e-001	-8.118105e+001	-2.365719e+001	2.678425e+001	-1.598096e+001	1.537676e+002
350093000	-1.708490e+001	-1.361776e+002	-2.457228e+001	-1.484143e+001	-8.720608e-001	-8.749457e+001	-3.268125e+001	-1.604170e+002
	-2.457580e+001	-1.485423e+001	-1.700289e+001	-1.369437e+002	-3.263500e+001	-1.596732e+002	-8.804414e-001	-8.725552e+001
	-8.697283e-001	-8.752240e+001	-3.262041e+001	-1.595051e+002	-1.537405e+001	1.445465e+002	-2.317982e+001	2.218481e+001
	-3.267574e+001	-1.606426e+002	-8.718293e-001	-8.727675e+001	-2.316412e+001	2.226494e+001	-1.532732e+001	1.451552e+002
375092500	-1.658390e+001	-1.408132e+002	-2.431718e+001	-2.185923e+001	-9.340567e-001	-9.353572e+001	-3.179817e+001	-1.679530e+002
	-2.432785e+001	-2.183522e+001	-1.652354e+001	-1.421360e+002	-3.175842e+001	-1.670886e+002	-9.452095e-001	-9.328853e+001
	-9.343183e-001	-9.352569e+001	-3.173454e+001	-1.672838e+002	-1.480284e+001	1.360123e+002	-2.272126e+001	1.771789e+001
	-3.179912e+001	-1.679970e+002	-9.370153e-001	-9.327529e+001	-2.272167e+001	1.775871e+001	-1.466880e+001	1.365031e+002
400092000	-1.604952e+001	-1.453592e+002	-2.405405e+001	-2.966592e+001	-1.001393e+000	-9.955164e+001	-3.093176e+001	-1.776761e+002
	-2.412284e+001	-2.881427e+001	-1.621519e+001	-1.464180e+002	-3.099221e+001	-1.749198e+002	-1.006935e+000	-9.931080e+001
	-9.995599e-001	-9.955306e+001	-3.091818e+001	-1.755131e+002	-1.424595e+001	1.276679e+002	-2.230942e+001	1.301002e+001
	-3.105255e+001	-1.752761e+002	-9.944301e-001	-9.931417e+001	-2.232251e+001	1.315624e+001	-1.416298e+001	1.281504e+002
425091500	-1.578253e+001	-1.501715e+002	-2.399489e+001	-3.605414e+001	-1.064802e+000	-1.055884e+002	-3.034328e+001	1.767157e+002
	-2.398842e+001	-3.593927e+001	-1.570315e+001	-1.516858e+002	-3.030960e+001	1.774256e+002	-1.077279e+000	-1.053244e+002
	-1.060609e+000	-1.055667e+002	-3.029909e+001	1.773260e+002	-1.374351e+001	1.189953e+002	-2.199214e+001	8.500751e+000
	-3.031766e+001	1.766601e+002	-1.065078e+000	-1.052839e+002	-2.196719e+001	8.507467e+000	-1.369071e+001	1.199772e+002
450091000	-1.552566e+001	-1.556251e+002	-2.391563e+001	-4.302496e+001	-1.137969e+000	-1.116188e+002	-2.971605e+001	1.692454e+002
	-2.391457e+001	-4.298725e+001	-1.538364e+001	-1.562467e+002	-2.967344e+001	1.695547e+002	-1.142454e+000	-1.113534e+002
	-1.133339e+000	-1.115806e+002	-2.974202e+001	1.697126e+002	-1.328281e+001	1.107968e+002	-2.166113e+001	3.900692e+000
	-2.967993e+001	1.692557e+002	-1.135319e+000	-1.113004e+002	-2.165769e+001	3.865896e+000	-1.315476e+001	1.119884e+002
475090500	-1.528765e+001	-1.594540e+002	-2.388825e+001	-5.007966e+001	-1.191752e+000	-1.176262e+002	-2.913002e+001	1.613550e+002
	-2.388548e+001	-5.004534e+001	-1.514907e+001	-1.609824e+002	-2.913396e+001	1.621587e+002	-1.213034e+000	-1.172832e+002
	-1.186571e+000	-1.176168e+002	-2.915354e+001	1.620124e+002	-1.292913e+001	1.028246e+002	-2.140206e+001	-8.127584e-001
	-2.913900e+001	1.611355e+002	-1.205462e+000	-1.172835e+002	-2.140739e+001	-7.830810e-001	-1.280191e+001	1.040617e+002
500090000	-1.500810e+001	-1.643027e+002	-2.392084e+001	-5.718728e+001	-1.260648e+000	-1.235628e+002	-2.862637e+001	1.536297e+002
	-2.392618e+001	-5.714223e+001	-1.495957e+001	-1.665835e+002	-2.863357e+001	1.542453e+002	-1.286202e+000	-1.233319e+002
	-1.258670e+000	-1.235713e+002	-2.864596e+001	1.543920e+002	-1.258462e+001	9.510274e+001	-2.118870e+001	-5.508753e+000
	-2.864399e+001	1.534755e+002	-1.277464e+000	-1.233294e+002	-2.118380e+001	-5.420858e+000	-1.245194e+001	9.649547e+001
525089500	-1.484908e+001	-1.699114e+002	-2.402814e+001	-6.409454e+001	-1.340291e+000	-1.296599e+002	-2.816846e+001	1.459186e+002
	-2.401737e+001	-6.400853e+001	-1.478707e+001	-1.719735e+002	-2.802353e+001	1.471628e+002	-1.362901e+000	-1.293497e+002
	-1.318099e+000	-1.295876e+002	-2.820114e+001	1.466473e+002	-1.192384e+001	8.824406e+001	-2.097302e+001	-9.958231e+000
	-2.814339e+001	1.459451e+002	-1.360851e+000	-1.293359e+002	-2.096918e+001	-9.966514e+000	-1.208527e+001	8.888778e+001
550089000	-1.473971e+001	-1.746481e+002	-2.417524e+001	-7.114951e+001	-1.390078e+000	-1.355933e+002	-2.769828e+001	1.380655e+002
	-2.416279e+001	-7.116104e+001	-1.466098e+001	-1.775050e+002	-2.771589e+001	1.391154e+002	-1.446442e+000	-1.353970e+002
	-1.382690e+000	-1.355976e+002	-2.777592e+001	1.390006e+002	-1.192530e+001	8.046297e+001	-2.086494e+001	-1.482747e+001
	-2.769149e+001	1.380238e+002	-1.441367e+000	-1.353769e+002	-2.085980e+001	-1.477168e+001	-1.180220e+001	8.104799e+001
575088500	-1.465144e+001	-1.796870e+002	-2.439177e+001	-7.815431e+001	-1.448585e+000	-1.416306e+002	-2.726718e+001	1.302891e+002
	-2.439478e+001	-7.814133e+001	-1.471484e+001	1.760047e+002	-2.734552e+001	1.314272e+002	-1.535431e+000	-1.414503e+002
	-1.452887e+000	-1.416758e+002	-2.735075e+001	1.313136e+002	-1.178959e+001	7.321857e+001	-2.079823e+001	-1.948343e+001
	-2.731426e+001	1.300087e+002	-1.526398e+000	-1.414267e+002	-2.078792e+001	-1.941896e+001	-1.142137e+001	7.358800e+001
600088000	-1.468921e+001	1.743553e+002	-2.466632e+001	-8.491684e+001	-1.512909e+000	-1.476360e+002	-2.688985e+001	1.224401e+002
	-2.467779e+001	-8.483575e+001	-1.497014e+001	1.688669e+002	-2.699659e+001	1.238046e+002	-1.641741e+000	-1.474958e+002
	-1.508452e+000	-1.476293e+002	-2.696662e+001	1.237406e+002	-1.158078e+001	6.598525e+001	-2.074406e+001	-2.405034e+001
	-2.691938e+001	1.225616e+002	-1.630712e+000	-1.474965e+002	-2.074556e+001	-2.395976e+001	-1.121760e+001	6.656359e+001
625087500	-1.474414e+001	1.677711e+002	-2.502392e+001	-9.179229e+001	-1.580675e+000	-1.537029e+002	-2.652181e+001	1.147940e+002
	-2.502977e+001	-9.169441e+001	-1.520170e+001	1.608040e+002	-2.668407e+001	1.159695e+002	-1.772745e+000	-1.535714e+002
	-1.577914e+000	-1.536567e+002	-2.665112e+001	1.161042e+002	-1.140536e+001	5.936589e+001	-2.073532e+001	-2.841481e+001
	-2.652389e+001	1.148203e+002	-1.756878e+000	-1.535714e+002	-2.074311e+001	-2.842456e+001	-1.090065e+001	5.956013e+001
650087000	-1.490718e+001	1.616962e+002	-2.550162e+001	-9.788253e+001	-1.645882e+000	-1.597172e+002	-2.621432e+001	1.065461e+002
	-2.550686e+001	-9.785460e+001	-1.586074e+001	1.521490e+002	-2.637420e+001	1.084161e+002	-1.936661e+000	-1.595520e+002
	-1.645220e+000	-1.597321e+002	-2.637283e+001	1.082651e+002	-1.126584e+001	5.245817e+001	-2.076863e+001	-3.276871e+001
	-2.621339e+001	1.065587e+002	-1.924129e+000	-1.595416e+002	-2.076595e+001	-3.260766e+001	-1.061144e+001	5.195744e+001
675086500	-1.509391e+001	1.555701e+002	-2.600000e+001	-1.035155e+002	-1.711123e+000	-1.658633e+002	-2.597061e+001	9.778821e+001
	-2.599766e+001	-1.034081e+002	-1.690057e+001	1.444938e+002	-2.614438e+001	1.005053e+002	-2.144485e+000	-1.651605e+002
	-1.711355e+000	-1.658653e+002	-2.614096e+001	1.005207e+002	-1.120100e+001	4.625474e+001	-2.083674e+001	-3.707063e+001
	-2.596615e+001	9.780665e+001	-2.136045e+000	-1.651310e+002	-2.082603e+001	-3.697269e+001	-1.030183e+001	4.316628e+001
700086000	-1.533587e+001	1.479088e+002	-2.651684e+001	-1.083107e+002	-1.772443e+000	-1.720129e+002	-2.585868e+001	8.925150e+001
	-2.651978e+001	-1.083615e+002	-1.865580e+001	1.401460e+002	-2.608407e+001	9.223168e+001	-2.361530e+000	-1.699817e+002
	-1.774363e+000	-1.720134e+002	-2.608129e+001	9.222735e+001	-1.109593e+001	3.999841e+001	-2.091842e+001	-4.114380e+001
	-2.590982e+001	8.938155e+001	-2.380308e+000	-1.701214e+002	-2.093916e+001	-4.121113e+001	-1.012870e+001	3.438778e+001
725085500	-1.579949e+001	1.403239e+002	-2.670474e+001	-1.133146e+002	-1.861960e+000	-1.782303e+002	-2.594114e+001	8.133585e+001
	-2.669243e+001	-1.133565e+002	-2.196081e+001	1.414160e+002	-2.588284e+001	8.577534e+001	-2.459932e+000	-1.742691e+002
	-1.858499e+000	-1.782225e+002	-2.587439e+001	8.578868e+001	-1.100650e+001	3.371486e+001	-2.104728e+001	-4.550289e+001
	-2.593870e+001	8.139765e+001	-2.451230e+000	-1.742383e+002	-2.105377e+001	-4.537820e+001	-1.021652e+001	2.464914e+001
750085000	-1.611172e+001	1.308937e+002	-2.692345e+001	-1.200598e+002	-1.942969e+000	1.755205e+002	-2.601872e+001	7.491519e+001
	-2.692706e+001	-1.199998e+002	-2.326321e+001	1.581500e+002	-2.572791e+001	7.912734e+001	-2.397162e+000	-1.786772e+002
	-1.945468e+000	1.755159e+002	-2.570957e+001	7.916913e+001	-1.095947e+001	2.836112e+001	-2.125009e+001	-4.961198e+001
	-2.600574e+001	7.477070e+001	-2.388775e+000	-1.786745e+002	-2.125232e+001	-4.954550e+001	-1.055812e+001	1.590861e+001
775084500	-1.669946e+001	1.198229e+002	-2.737606e+001	-1.277438e+002	-2.045740e+000	1.691564e+002	-2.605566e+001	6.860811e+001
	-2.737664e+001	-1.275445e+002	-2.266501e+001	1.659892e+002	-2.547507e+001	7.291162e+001	-2.264238e+000	1.762142e+002
	-2.046842e+000	1.691171e+002	-2.548585e+001	7.272488e+001	-1.083707e+001	2.280017e+001	-2.160498e+001	-5.345935e+001
	-2.609022e+001	6.864645e+001	-2.259487e+000	1.761499e+002	-2.160127e+001	-5.337046e+001	-1.122030e+001	6.491228e+000
800084000	-1.750641e+001	1.078477e+002	-2.809642e+001	-1.362514e+002	-2.167013e+000	1.627328e+002	-2.588244e+001	6.298670e+001
	-2.807749e+001	-1.360418e+002	-2.181754e+001	1.657458e+002	-2.522749e+001	6.602042e+001	-2.165879e+000	1.703357e+002
	-2.161990e+000	1.627138e+002	-2.525477e+001	6.593596e+001	-1.078745e+001	1.680563e+001	-2.192109e+001	-5.672937e+001
	-2.587100e+001	6.312050e+001	-2.161559e+000	1.702848e+002	-2.191960e+001	-5.672562e+001	-1.153952e+001	6.651612e-001
825083500	-1.842962e+001	9.473105e+001	-2.913050e+001	-1.445438e+002	-2.322165e+000	1.562901e+002	-2.563808e+001	5.711481e+001
	-2.910779e+001	-1.446941e+002	-2.159111e+001	1.613374e+002	-2.494597e+001	5.880624e+001	-2.112289e+000	1.641760e+002
	-2.323373e+000	1.561162e+002	-2.496567e+001	5.875214e+001	-1.067201e+001	1.127568e+001	-2.223802e+001	-5.930979e+001
	-2.560226e+001	5.652804e+001	-2.101145e+000	1.641766e+002	-2.223316e+001	-5.926473e+001	-1.182235e+001	-3.504746e+000
850083000	-1.916841e+001	7.142816e+001	-3.040915e+001	-1.507110e+002	-2.532459e+000	1.497926e+002	-2.544468e+001	5.061843e+001
	-3.041069e+001	-1.508843e+002	-2.200712e+001	1.542164e+002	-2.475276e+001	5.140995e+001	-2.084956e+000	1.579741e+002
	-2.527196e+000	1.497653e+002	-2.476318e+001	5.139240e+001	-1.043265e+001	5.975766e+000	-2.259852e+001	-6.114366e+001
	-2.544637e+001	5.071658e+001	-2.083658e+000	1.580029e+002	-2.261183e+001	-6.099846e+001	-1.227545e+001	-8.571762e+000
875082500	-1.963270e+001	4.572404e+001	-3.185717e+001	-1.560160e+002	-2.779576e+000	1.435753e+002	-2.524292e+001	4.376078e+001
	-3.189529e+001	-1.559393e+002	-2.298212e+001	1.489061e+002	-2.451306e+001	4.344573e+001	-2.082755e+000	1.516920e+002
	-2.780315e+000	1.435578e+002	-2.451325e+001	4.350606e+001	-1.022311e+001	-1.194891e-001	-2.292061e+001	-6.269749e+001
	-2.523807e+001	4.382529e+001	-2.073004e+000	1.516912e+002	-2.292363e+001	-6.263221e+001	-1.260559e+001	-1.382665e+001
900082000	-1.972229e+001	1.697371e+001	-3.348629e+001	-1.589176e+002	-3.109122e+000	1.378225e+002	-2.513383e+001	3.659709e+001
	-3.348567e+001	-1.586011e+002	-2.467173e+001	1.413820e+002	-2.441724e+001	3.512556e+001	-2.094887e+000	1.453740e+002
	-3.113291e+000	1.377836e+002	-2.442484e+001	3.518682e+001	-1.004037e+001	-7.101468e+000	-2.317816e+001	-6.369346e+001
	-2.511140e+001	3.660180e+001	-2.081862e+000	1.454165e+002	-2.317584e+001	-6.360032e+001	-1.296621e+001	-1.842710e+001
925081500	-1.926153e+001	-1.216825e+001	-3.486833e+001	-1.595455e+002	-3.411303e+000	1.328801e+002	-2.507093e+001	2.946492e+001
	-3.489163e+001	-1.592487e+002	-2.670515e+001	1.360042e+002	-2.445129e+001	2.687042e+001	-2.122265e+000	1.391143e+002
	-3.410876e+000	1.328615e+002	-2.446862e+001	2.689059e+001	-9.967108e+000	-1.518022e+001	-2.340076e+001	-6.454467e+001
	-2.506856e+001	2.944099e+001	-2.116189e+000	1.390972e+002	-2.340519e+001	-6.450132e+001	-1.340715e+001	-2.267973e+001
950081000	-1.845238e+001	-3.746440e+001	-3.583613e+001	-1.613425e+002	-3.609872e+000	1.287448e+002	-2.509450e+001	2.286576e+001
	-3.583418e+001	-1.613551e+002	-3.113346e+001	1.246126e+002	-2.460115e+001	1.951348e+001	-2.157230e+000	1.327963e+002
	-3.607344e+000	1.287048e+002	-2.459617e+001	1.943941e+001	-1.002971e+001	-2.387655e+001	-2.362274e+001	-6.543462e+001
	-2.509051e+001	2.292326e+001	-2.148218e+000	1.327463e+002	-2.361897e+001	-6.531070e+001	-1.383036e+001	-2.642781e+001
975080500	-1.807136e+001	-5.682625e+001	-3.723790e+001	-1.680693e+002	-3.647811e+000	1.246265e+002	-2.511005e+001	1.696110e+001
	-3.719102e+001	-1.679096e+002	-3.952372e+001	8.899576e+001	-2.481737e+001	1.321222e+001	-2.198500e+000	1.264148e+002
	-3.645532e+000	1.245602e+002	-2.480967e+001	1.307880e+001	-1.045382e+001	-3.193590e+001	-2.384262e+001	-6.584806e+001
	-2.511266e+001	1.690852e+001	-2.194811e+000	1.264019e+002	-2.383730e+001	-6.579624e+001	-1.435849e+001	-2.935252e+001
1000080000	-1.789778e+001	-6.895981e+001	-3.955292e+001	-1.798305e+002	-3.563898e+000	1.197483e+002	-2.501255e+001	1.155857e+001
