! Created Wed Jan 26 16:48:40 2011
# hz S ma R 50
! 3 Port Network Data from SP1.SP block
! freq  magS11  angS11  magS12  angS12  magS13  angS13  
!       magS21  angS21  
!       magS22  angS22  magS23  angS23  
!       magS31  angS31  magS32  angS32  
!       magS33  angS33  
!     
            100000      0.0596199352           35.08601        0.955704201          -6.784641       0.0111007034          -149.9927
                       0.95564921          -6.840513       0.0558099971           37.13702       0.0156052776           48.88051
                     0.0111182005          -150.5763       0.0157121277           49.07997        0.059163928            36.2514

          42599500      0.0778225577          -8.050728          0.5076994           82.79138       0.0512615224          -43.66529
                      0.507665441            82.7853       0.0791235018          -17.71899        0.077432539          -11.72898
                     0.0511903973           -43.8115        0.077511207          -11.76904       0.0846780796          -16.58329

          85099000      0.0909470256           -61.1939        0.414311654          -171.5963       0.0583400773            62.5533
                       0.41449362          -171.6324       0.0922305928          -47.50886       0.0831619186          -60.19877
                     0.0583215423           62.50142       0.0831496643          -60.22391       0.0798136184          -62.57008

         127598500       0.105148359          -91.51402        0.352092237          -63.93139       0.0643181435           172.9439
                      0.352146479            -63.939       0.0979731339          -93.98992        0.080932415          -96.07086
                     0.0642763194           172.9377       0.0808782043          -96.08545       0.0872624697          -90.93953

         170098000       0.104712614           -108.653        0.300241347           44.04994       0.0723377506          -77.16235
                      0.300295276           44.06696        0.132339808          -114.9701       0.0977601817          -127.3476
                     0.0723519099          -77.13537       0.0977395871          -127.3948        0.120917734          -129.9855

         212597500       0.126484993          -164.5048        0.257219565           154.3534       0.0764569554           29.96651
                      0.257169227           154.3579        0.123822195          -162.5635        0.108109162          -164.1169
                     0.0764304647           29.92291         0.10817079          -164.0587        0.135723328          -167.2517

         255097000       0.127022893           164.8668        0.222209949          -94.28031       0.0776650274           137.6324
                      0.222250886          -94.32751        0.145824166           152.3734          0.1253818           149.1495
                     0.0776386544           137.5954        0.125455007           149.1353        0.150780959           160.8311

         297596500       0.127937689           115.4585        0.192815747           17.97165       0.0730223827          -115.0144
                      0.192862814           17.96235        0.128006641           115.1797        0.135688643           110.1609
                      0.073039451          -114.9753        0.135747863            110.152        0.166204011           110.6906

         340096000       0.154585765            79.6981        0.167254188           130.4666       0.0722115222          -4.181698
                      0.167167559           130.4321        0.145171211           69.10004        0.127600977           70.24104
                     0.0722333904           -4.17018        0.127687828           70.28515         0.16142489           69.09659

         382595500       0.148894789           33.46863         0.14937778          -115.4188       0.0669290252           109.3152
                       0.14937262          -115.3997        0.161907699           24.32623        0.126385136           30.22772
                      0.066851322           109.3944        0.126331456           30.23999        0.153535214           32.17809

         425095000       0.159661608          -9.225369        0.129865114           -2.51925       0.0681200566          -140.4262
                      0.129821613          -2.529936        0.181414293          -13.76081        0.146408908            -6.5948
                     0.0681666576          -140.3879        0.146454594          -6.532938         0.19578346          -6.315359

         467594500       0.188988335          -48.52508        0.114625172           112.6787       0.0631878386          -30.47393
                      0.114604851           112.6863         0.18480895           -55.6387         0.16129485          -51.80255
                     0.0631203648          -30.53049        0.161305249          -51.81219        0.220518485          -48.74499

         510094000       0.178787026          -90.68125        0.100579506          -133.4287       0.0598332371           81.82934
                      0.100746508          -133.3948        0.180667277          -96.35236        0.139900897          -91.78483
                     0.0597284851           81.76383        0.139864823          -91.79546         0.22189397          -97.26438

         552593500       0.185966835          -128.5102       0.0893712845          -18.50942       0.0553085789          -163.8667
                     0.0893374393          -18.49012        0.184881306          -135.8102        0.159738463          -136.4293
                     0.0552705136          -163.8979        0.159761268          -136.4306        0.235474834          -138.3274

         595093000       0.175558152          -175.2664       0.0762437941            97.2247       0.0558779545          -51.22109
                     0.0761929871            97.2458         0.19709359          -175.4975        0.142087378          -177.6068
                      0.055841876          -51.16258        0.142102101          -177.5828        0.225344519          -179.5862

         637592500       0.200223016           147.5475       0.0704530826          -145.8838       0.0508217365           63.96048
                     0.0705370025          -145.8568        0.177864592            136.507        0.124655372           139.1211
                     0.0507553702           63.94633        0.124654081           139.1168        0.183054749           129.1365

         680092000       0.189455841           114.1269       0.0579727631          -25.65582       0.0519495751           172.5209
                     0.0579987989          -25.63707        0.203428595           96.64474         0.11125973           100.4583
                     0.0519479005           172.5421        0.111090009           100.4939        0.199786896           96.42844

         722591500       0.177710259           75.59007       0.0618202846           90.90813       0.0424122195          -71.51833
                     0.0617973711           90.98014        0.165648688           60.95274        0.123459496           78.06758
                     0.0423909842          -71.40366         0.12336075           78.10807        0.142709045           75.58713

         765091000       0.197699468           23.40572       0.0545270497          -151.4347       0.0411312587           37.69238
                     0.0546326793           -151.328        0.223361594           23.51583        0.151144205           30.92506
                     0.0410728179           37.74711        0.151023315           30.93906        0.229031913           36.56877

         807590500       0.182841384        -0.04902346       0.0520065447          -39.72559       0.0368129821            162.815
                      0.052009299           -39.6696         0.21817124          -25.83318        0.127750615           8.115538
                     0.0369203662           162.7915         0.12762375           8.139347         0.25427227          -9.058505

         850090000       0.193967514          -48.75718       0.0476331717           79.36061       0.0319153418          -90.04168
                     0.0476578559           79.23712        0.242051902          -57.52386         0.14944521          -52.94354
                     0.0319040634          -90.15372        0.149345108          -52.88001          0.3054158          -63.92576

         892589500         0.2075377          -92.79682       0.0427049778          -166.9281       0.0315407125            34.4905
                     0.0427896762          -166.9662        0.241392904          -100.1492        0.130031628          -82.49614
                     0.0315561128           34.58066        0.129994656          -82.48214        0.281554842          -112.5703

         935089000       0.210196268          -128.8632       0.0387091825          -48.80098       0.0296886192           147.1031
                     0.0386845011          -48.79994        0.238104717          -137.9933        0.143531757          -129.3067
                       0.02962825           147.0541        0.143511267          -129.3066        0.253555479          -142.3391

         977588500        0.26287059           -174.468       0.0355046716           65.69841       0.0287158714          -93.43824
                     0.0353926434           65.63614        0.254998133           172.0481        0.152218697          -172.0345
                     0.0287787217          -93.22713         0.15219872          -172.0145        0.259059188           167.8759

     1.020088e+009       0.233479632           143.0509       0.0330122405           -172.181       0.0268484365           17.71423
                     0.0329558107          -172.1257        0.264550752           131.4992         0.15277736           149.7427
                     0.0268678553           17.47076        0.152796533           149.7864        0.259611245           131.6497

    1.0625875e+009       0.241753071           92.95492       0.0306684622          -57.95751       0.0254008061           138.8105
                     0.0306685681          -58.04672        0.237291947           85.83833        0.144448155            119.712
                     0.0254021221           138.8954        0.144456803           119.6896        0.234908916           96.10354

     1.105087e+009       0.244147342           50.62381       0.0284824603           61.71483       0.0227991681          -108.7619
                     0.0284980734           61.75412        0.247569135           48.27914        0.167459967           74.28052
                     0.0228105102           -108.796        0.167684724           74.25178        0.249022449           57.42177

    1.1475865e+009       0.221317879           13.12577       0.0267360965           175.1654       0.0231862492           9.514797
                     0.0267277254           175.3214        0.252305083           8.520751        0.152568192           31.27346
                     0.0231800036           9.608306        0.152653934           31.19537        0.265899793           13.90576

     1.190086e+009       0.220239139          -33.01462       0.0250714528           -63.8699       0.0209596729           123.6575
                     0.0248641433           -64.0434        0.251414024          -40.10738        0.149960542          -13.55285
                      0.020943174           123.8548        0.149891843          -13.67178        0.298967514          -36.02308

    1.2325855e+009       0.226205156          -78.11645       0.0236875421           51.32986       0.0197123999          -116.8119
                     0.0237942215           51.34164        0.256899051          -81.96401        0.135450465          -49.45774
                     0.0196862502          -116.9187        0.135240728          -49.51212        0.290486196          -82.02584

     1.275085e+009       0.216041657          -119.8482       0.0214103368           168.2742       0.0185591679          -3.322536
                     0.0213121125           168.2184         0.25906575           -116.879        0.131219688          -89.92038
                     0.0186076274            -3.2403        0.131016954          -89.98548        0.274611993          -118.4856

    1.3175845e+009       0.212934239          -161.7492       0.0211197854          -75.76635       0.0167593241           120.0486
                     0.0211695682          -75.88341        0.234263161          -156.8975        0.132199861          -131.2982
                     0.0167584559           119.9515        0.131900518            -131.45        0.289438967          -158.0378

     1.360084e+009       0.213814424           152.6347       0.0183204653           46.20213       0.0167015393          -130.3471
                     0.0183138857           46.48443        0.248336468           161.3265         0.14858809          -175.1417
                     0.0167313506          -130.2704        0.148270926          -175.1009         0.25560568           160.3267

    1.4025835e+009       0.205265046           108.5043       0.0174363669           157.4596        0.016486805          -8.191559
                     0.0174996555            157.546        0.218112221            128.218        0.139324021           143.3953
                     0.0164861976          -8.249019        0.139115814           143.4464        0.243342519           121.7891

     1.445083e+009       0.211954919           65.04777       0.0166598275          -82.13365       0.0135862155           106.1103
                     0.0167339513          -82.72864        0.267630127           66.81095        0.117947299            103.131
                     0.0136716521           105.7699        0.117791377             103.13        0.248956231           88.32031

    1.4875825e+009        0.20289881           32.41063        0.015039694           34.92869       0.0138482852          -140.8329
                     0.0149616675           35.09225        0.240583035           29.55598       0.0853107971           58.32262
                     0.0139006785          -140.7106       0.0853500933           58.31097        0.229513904           31.02321

     1.530082e+009       0.225238434          -12.28835       0.0136850535            149.061       0.0141099346          -17.24578
                     0.0137613646           149.0687        0.240482512          -20.69033       0.0860265487           55.36635
                     0.0141176366           -17.0139       0.0858793008           55.39358        0.197291103           12.16712

    1.5725815e+009       0.219688589          -55.85217       0.0138167373          -99.44698        0.010055635           97.03157
                     0.0137918174          -99.73287         0.25545829          -43.06185       0.0466910886          -5.742455
                     0.0100581128           97.48197       0.0467013032          -5.577121        0.284732473          -27.75743

     1.615081e+009       0.184573777          -119.2446       0.0129039152           39.15886       0.0110182976          -139.7513
                     0.0129702396           39.28397        0.230229781          -107.4024        0.136829739          -38.17652
                     0.0109435821          -139.9843        0.136935957          -38.29943        0.246583209          -92.57137

    1.6575805e+009       0.164067288          -155.4247       0.0118292443           146.1047       0.0117691473          -19.03753
                       0.01188297           146.1437        0.241321491          -143.4386        0.107191537          -78.78329
                     0.0117346867          -19.01278        0.107210297          -78.78815        0.236254451           -129.355

      1.70008e+009       0.177363194           161.6905       0.0111130048          -94.61708       0.0110531866           92.49154
                     0.0110572085          -94.55529        0.194963809          -173.1143       0.0989663379          -125.4454
                     0.0110426549           92.18813       0.0990681379          -125.4689        0.237221474          -168.6348

    1.7425795e+009       0.159467248           121.3925       0.0107864367           18.53833       0.0104182794          -143.0396
                     0.0108595418           18.14177        0.162856839           131.0689       0.0900206201           -152.281
                     0.0104415747           -143.285       0.0901291966          -152.2119        0.195441146           139.1531

     1.785079e+009       0.124728299           79.52708       0.0104392789           148.0114      0.00905838969           -37.2619
                     0.0105123546           147.8423        0.139096595           90.55278       0.0996234322          -175.0701
                    0.00905891115          -36.53041       0.0997346344          -175.0284        0.136869285           104.0768

    1.8275785e+009       0.132045772           33.06877      0.00787337614          -103.1892       0.0109054477           83.38502
                    0.00779740334          -102.8868        0.097218295           43.42397        0.120460594           153.4889
                     0.0109214801           82.78856        0.120543001            153.492        0.134599672           85.24886

     1.870078e+009       0.114597594          0.9940397      0.00990596981           16.07731      0.00853938315           -154.085
                    0.00987254223           16.24642       0.0962267903           10.21614        0.133603858            106.205
                    0.00855048009          -154.1295        0.133447057           106.2259        0.151169264           46.63098

    1.9125775e+009       0.117108252          -45.58881      0.00627127723           139.4227      0.00951486214          -44.01154
                    0.00624494331           140.2645       0.0879686648          -25.73979        0.125615722           64.33607
                    0.00953785026          -44.14459        0.125463818           64.34968        0.144645191           4.068381

     1.955077e+009      0.0931804922          -89.90644      0.00858595287          -126.3699      0.00763386543           90.95209
                    0.00857594525           -126.372        0.130171078          -61.09801        0.133767928            33.1923
                    0.00766502366           90.60899        0.133777939           33.18215        0.162533729          -40.43248

    1.9975765e+009      0.0917664645          -139.9867       0.0087959854           20.98958      0.00600804947           179.3972
                    0.00887265306           21.43822        0.116944419          -98.51169        0.164587936          -9.132358
                    0.00604210822           179.5138        0.164674935          -9.151571        0.142109136           -67.8849

     2.040076e+009      0.0601782425          -139.7428      0.00631831102           120.5362      0.00840251894          -44.18985
                    0.00635200015           120.9296        0.124264192           -122.824        0.199312254           -48.6155
                    0.00836735124           -44.0804        0.199258566          -48.66872             0.1578          -105.4868

    2.0825755e+009       0.126312695           171.9699      0.00848109641          -114.2039      0.00473789029           68.53447
                    0.00845032671          -114.1787        0.142017872           -161.176         0.21292762          -101.5163
                    0.00470635302           68.72381        0.212652748          -101.5823        0.204201064          -134.9682

     2.125075e+009       0.131779847           151.2667      0.00486998922          -11.25487      0.00750537679          -175.2864
