!Agilent Technologies,E5071C,MY46106673,A.09.22
!Date: Thu Jan 20 16:48:24 2011
!Data & Calibration Information:
!Freq	S11:SOLT4(ON)	S12:SOLT4(ON)	S13:SOLT4(ON)	S14:SOLT4(ON)
!	S21:SOLT4(ON)	S22:SOLT4(ON)	S23:SOLT4(ON)	S24:SOLT4(ON)
!	S31:SOLT4(ON)	S32:SOLT4(ON)	S33:SOLT4(ON)	S34:SOLT4(ON)
!	S41:SOLT4(ON)	S42:SOLT4(ON)	S43:SOLT4(ON)	S44:SOLT4(ON)
# Hz S dB R 50
100000	-2.435800e+001	3.423545e+001	-3.566491e+001	4.749365e+001	-4.071185e-001	-6.844775e+000	-3.829515e+001	-1.531782e+002
	-3.537218e+001	4.617643e+001	-2.467455e+001	3.370936e+001	-3.803212e+001	-1.528330e+002	-4.018193e-001	-6.868810e+000
	-4.121634e-001	-6.892037e+000	-3.786588e+001	-1.523022e+002	-2.501042e+001	3.552709e+001	-3.555040e+001	4.603495e+001
	-3.847806e+001	-1.532579e+002	-4.085189e-001	-6.839797e+000	-3.536055e+001	4.574624e+001	-2.440955e+001	3.466714e+001
5412438	-2.079314e+001	-3.026602e+001	-2.182840e+001	-5.479753e-001	-2.648217e+000	8.699024e+001	-3.602877e+001	-6.043563e+001
	-2.183408e+001	-2.463172e-001	-2.102871e+001	-3.009608e+001	-3.587398e+001	-5.841872e+001	-2.596101e+000	8.734781e+001
	-2.642730e+000	8.703733e+001	-3.588349e+001	-6.093664e+001	-2.073742e+001	-2.813296e+001	-2.163682e+001	4.136031e-001
	-3.605819e+001	-5.781514e+001	-2.612162e+000	8.713999e+001	-2.166618e+001	4.360816e-001	-2.060820e+001	-3.201664e+001
10724875	-3.096156e+001	7.453998e-001	-3.083270e+001	-1.894018e+001	-3.385377e+000	-1.727945e+002	-3.133869e+001	7.173941e+001
	-3.078906e+001	-1.866488e+001	-3.527192e+001	1.004680e+001	-3.148210e+001	7.273065e+001	-3.335431e+000	-1.723973e+002
	-3.383682e+000	-1.727489e+002	-3.151689e+001	7.253445e+001	-3.512353e+001	-1.348488e+001	-3.146934e+001	-2.096770e+001
	-3.131519e+001	7.181084e+001	-3.344661e+000	-1.726021e+002	-3.149247e+001	-2.135503e+001	-3.296856e+001	1.593954e+001
16037313	-2.667134e+001	-1.100691e+001	-2.373230e+001	8.335530e+000	-3.995389e+000	-7.187491e+001	-2.771194e+001	1.680341e+002
	-2.372653e+001	8.372329e+000	-2.369511e+001	-4.444226e+000	-2.772064e+001	1.681113e+002	-3.946655e+000	-7.132333e+001
	-3.992774e+000	-7.183140e+001	-2.774919e+001	1.677030e+002	-2.615337e+001	-2.330994e+001	-2.390022e+001	5.489646e+000
	-2.767898e+001	1.682243e+002	-3.956976e+000	-7.151892e+001	-2.391652e+001	5.153749e+000	-2.395018e+001	-5.301299e+000
21349750	-2.777521e+001	-1.130697e+000	-2.551263e+001	-1.845836e+001	-4.483778e+000	2.996705e+001	-2.636494e+001	-9.323531e+001
	-2.550397e+001	-1.841222e+001	-3.075231e+001	2.397258e+000	-2.641265e+001	-9.291795e+001	-4.417556e+000	3.047412e+001
	-4.483796e+000	2.999285e+001	-2.644377e+001	-9.307482e+001	-3.314120e+001	-3.616943e+001	-2.661970e+001	-2.526722e+001
	-2.633222e+001	-9.316356e+001	-4.425113e+000	3.032783e+001	-2.662794e+001	-2.547155e+001	-3.323114e+001	8.845371e+000
26662188	-2.632981e+001	-1.820761e+000	-2.590111e+001	7.841191e+000	-4.924587e+000	1.320100e+002	-2.516298e+001	3.749673e+000
	-2.590503e+001	7.835847e+000	-2.518410e+001	4.743250e+000	-2.517501e+001	3.782029e+000	-4.861560e+000	1.326600e+002
	-4.926462e+000	1.320342e+002	-2.518001e+001	3.552558e+000	-2.762218e+001	6.378178e+000	-2.576689e+001	9.740136e+000
	-2.514177e+001	3.855451e+000	-4.865235e+000	1.325228e+002	-2.575576e+001	9.552644e+000	-2.521160e+001	1.190803e+001
31974625	-2.528225e+001	-1.798920e+001	-2.330266e+001	-1.342082e+001	-5.327626e+000	-1.254614e+002	-2.464801e+001	1.010339e+002
	-2.329605e+001	-1.341449e+001	-2.611578e+001	-1.236625e+001	-2.461957e+001	1.009757e+002	-5.253447e+000	-1.247622e+002
	-5.327715e+000	-1.254335e+002	-2.464411e+001	1.008703e+002	-2.584753e+001	-1.684499e+001	-2.315430e+001	-1.618414e+001
	-2.461163e+001	1.010488e+002	-5.257800e+000	-1.248523e+002	-2.315765e+001	-1.638029e+001	-2.584298e+001	-1.746833e+001
37287063	-2.450036e+001	1.816031e+001	-2.581384e+001	-8.461130e-001	-5.614626e+000	-2.267295e+001	-2.472789e+001	-1.574892e+002
	-2.579699e+001	-7.924238e-001	-2.503812e+001	7.332142e+000	-2.470261e+001	-1.576070e+002	-5.532794e+000	-2.192650e+001
	-5.614103e+000	-2.268638e+001	-2.471112e+001	-1.578901e+002	-2.497846e+001	1.884324e+001	-2.534350e+001	-4.601358e+000
	-2.471680e+001	-1.574925e+002	-5.534465e+000	-2.198967e+001	-2.536095e+001	-4.713844e+000	-2.541664e+001	6.446752e-001
42599500	-2.078424e+001	-2.338063e+001	-2.146271e+001	-1.441525e+001	-5.967250e+000	7.991934e+001	-2.407331e+001	-5.824910e+001
	-2.145333e+001	-1.445588e+001	-2.218849e+001	-1.210609e+001	-2.398694e+001	-5.774821e+001	-5.869988e+000	8.064409e+001
	-5.962836e+000	7.990695e+001	-2.399427e+001	-5.786745e+001	-2.183597e+001	-4.629435e+000	-2.163149e+001	-9.462988e+000
	-2.407154e+001	-5.827614e+001	-5.870773e+000	8.065333e+001	-2.163487e+001	-9.532473e+000	-2.265910e+001	-1.850866e+001
47911938	-2.613815e+001	-1.572885e+001	-2.379894e+001	-2.933677e+001	-6.235088e+000	-1.768206e+002	-2.431094e+001	4.081743e+001
	-2.380238e+001	-2.935204e+001	-2.349920e+001	-2.073014e+001	-2.419075e+001	3.991253e+001	-6.155724e+000	-1.760216e+002
	-6.234011e+000	-1.768212e+002	-2.417467e+001	4.005797e+001	-2.515327e+001	-7.162735e+000	-2.365984e+001	-2.735801e+001
	-2.434815e+001	4.054947e+001	-6.154645e+000	-1.760200e+002	-2.365956e+001	-2.736642e+001	-2.536920e+001	-2.287658e+001
53224375	-2.207780e+001	-2.795130e+001	-2.275196e+001	-1.961238e+001	-6.419028e+000	-7.446944e+001	-2.413544e+001	1.480020e+002
	-2.273493e+001	-1.972994e+001	-2.169565e+001	-2.044769e+001	-2.414924e+001	1.468897e+002	-6.344322e+000	-7.370709e+001
	-6.419145e+000	-7.447411e+001	-2.409944e+001	1.471769e+002	-2.404522e+001	-1.414462e+001	-2.283456e+001	-2.105206e+001
	-2.419281e+001	1.474450e+002	-6.343116e+000	-7.368168e+001	-2.284810e+001	-2.104065e+001	-2.242553e+001	-1.931294e+001
58536813	-2.527287e+001	-4.401652e+001	-2.260454e+001	-4.238658e+001	-6.786198e+000	2.863333e+001	-2.350956e+001	-1.152900e+002
	-2.260062e+001	-4.242110e+001	-2.424491e+001	-4.178290e+001	-2.350067e+001	-1.164232e+002	-6.720024e+000	2.949067e+001
	-6.792725e+000	2.863450e+001	-2.343440e+001	-1.162114e+002	-2.395017e+001	-2.340908e+001	-2.192121e+001	-3.648862e+001
	-2.361321e+001	-1.156758e+002	-6.719145e+000	2.952297e+001	-2.191633e+001	-3.645249e+001	-2.430684e+001	-3.340282e+001
63849250	-2.390657e+001	-1.226193e+001	-2.449358e+001	-2.771809e+001	-6.907090e+000	1.311212e+002	-2.380463e+001	-6.885337e+000
	-2.448986e+001	-2.771330e+001	-2.410838e+001	-1.607693e+001	-2.374730e+001	-8.645755e+000	-6.828835e+000	1.320862e+002
	-6.908448e+000	1.311622e+002	-2.369592e+001	-8.311223e+000	-2.105373e+001	-2.569913e+001	-2.265368e+001	-3.668587e+001
	-2.390131e+001	-7.358824e+000	-6.829107e+000	1.321319e+002	-2.264402e+001	-3.668772e+001	-2.238804e+001	-2.354391e+001
69161688	-2.301420e+001	-3.806688e+001	-2.177682e+001	-3.858667e+001	-7.262999e+000	-1.259645e+002	-2.294884e+001	9.195422e+001
	-2.177783e+001	-3.859985e+001	-2.146205e+001	-3.633213e+001	-2.295665e+001	8.998708e+001	-7.197433e+000	-1.249875e+002
	-7.259114e+000	-1.259900e+002	-2.287745e+001	9.031693e+001	-2.309027e+001	-5.246645e+001	-2.189272e+001	-4.670520e+001
	-2.305655e+001	9.163395e+001	-7.195743e+000	-1.249547e+002	-2.189773e+001	-4.676586e+001	-2.184921e+001	-4.349186e+001
74474125	-2.243066e+001	-2.916775e+001	-2.260504e+001	-4.806299e+001	-7.374730e+000	-2.266563e+001	-2.367710e+001	-1.644564e+002
	-2.260798e+001	-4.806968e+001	-2.278209e+001	-3.629434e+001	-2.368270e+001	-1.662646e+002	-7.294244e+000	-2.150774e+001
	-7.375366e+000	-2.272461e+001	-2.362852e+001	-1.660968e+002	-2.517791e+001	-3.583362e+001	-2.376022e+001	-5.662874e+001
	-2.374685e+001	-1.645579e+002	-7.294632e+000	-2.146915e+001	-2.376141e+001	-5.661808e+001	-2.396664e+001	-4.115662e+001
79786563	-2.092101e+001	-4.121135e+001	-2.194092e+001	-4.271031e+001	-7.724518e+000	7.975204e+001	-2.264102e+001	-6.261624e+001
	-2.192097e+001	-4.273743e+001	-2.072320e+001	-4.227505e+001	-2.259699e+001	-6.438258e+001	-7.643371e+000	8.105825e+001
	-7.723039e+000	7.977835e+001	-2.257403e+001	-6.429645e+001	-2.148862e+001	-4.208065e+001	-2.176850e+001	-4.605745e+001
	-2.269329e+001	-6.270353e+001	-7.645716e+000	8.108889e+001	-2.177107e+001	-4.604590e+001	-2.091406e+001	-3.960440e+001
85099000	-2.279844e+001	-4.946670e+001	-2.273219e+001	-5.446910e+001	-7.878003e+000	-1.766365e+002	-2.328264e+001	3.836913e+001
	-2.274348e+001	-5.449253e+001	-2.151545e+001	-3.696036e+001	-2.306921e+001	3.701220e+001	-7.786027e+000	-1.751029e+002
	-7.875155e+000	-1.766440e+002	-2.307792e+001	3.694960e+001	-2.217729e+001	-5.236862e+001	-2.245920e+001	-6.068353e+001
	-2.327384e+001	3.840216e+001	-7.787263e+000	-1.751185e+002	-2.247111e+001	-6.070737e+001	-2.354241e+001	-6.395848e+001
90411438	-2.184912e+001	-4.658904e+001	-2.268472e+001	-4.937880e+001	-8.107731e+000	-7.409246e+001	-2.281211e+001	1.434734e+002
	-2.267093e+001	-4.934565e+001	-2.051978e+001	-4.146934e+001	-2.267144e+001	1.415907e+002	-8.005426e+000	-7.251780e+001
	-8.106112e+000	-7.403241e+001	-2.267340e+001	1.416047e+002	-2.296475e+001	-5.955354e+001	-2.261970e+001	-6.230274e+001
	-2.281442e+001	1.433986e+002	-8.004059e+000	-7.250903e+001	-2.261836e+001	-6.226145e+001	-2.100649e+001	-4.783933e+001
95723875	-2.010178e+001	-4.415127e+001	-2.099667e+001	-5.889808e+001	-8.385349e+000	2.962395e+001	-2.270357e+001	-1.177689e+002
	-2.100467e+001	-5.890529e+001	-2.007181e+001	-5.340589e+001	-2.256784e+001	-1.199316e+002	-8.267992e+000	3.131779e+001
	-8.386774e+000	2.966081e+001	-2.259278e+001	-1.200377e+002	-2.188111e+001	-8.224828e+001	-2.198248e+001	-7.451614e+001
	-2.270056e+001	-1.177521e+002	-8.271674e+000	3.133671e+001	-2.198681e+001	-7.462588e+001	-2.053927e+001	-7.435955e+001
101036313	-2.094195e+001	-4.900030e+001	-2.198841e+001	-5.998497e+001	-8.503051e+000	1.322404e+002	-2.278723e+001	-1.055987e+001
	-2.198136e+001	-5.987270e+001	-1.975942e+001	-5.614817e+001	-2.258705e+001	-1.300755e+001	-8.385503e+000	1.338266e+002
	-8.499264e+000	1.322076e+002	-2.260202e+001	-1.311218e+001	-2.315277e+001	-5.233330e+001	-2.255092e+001	-6.417213e+001
	-2.278074e+001	-1.054177e+001	-8.384497e+000	1.338544e+002	-2.254664e+001	-6.412871e+001	-2.212672e+001	-6.267938e+001
106348750	-1.849839e+001	-7.449668e+001	-2.104347e+001	-6.888184e+001	-8.771289e+000	-1.248172e+002	-2.242333e+001	9.106537e+001
	-2.103759e+001	-6.884959e+001	-1.984316e+001	-7.792160e+001	-2.222365e+001	8.904859e+001	-8.645037e+000	-1.228918e+002
	-8.766943e+000	-1.247757e+002	-2.224321e+001	8.911427e+001	-2.164071e+001	-5.971148e+001	-2.133930e+001	-7.477187e+001
	-2.241698e+001	9.100778e+001	-8.646259e+000	-1.228472e+002	-2.134342e+001	-7.480141e+001	-2.124041e+001	-7.424148e+001
111661188	-2.148936e+001	-7.069331e+001	-2.056940e+001	-7.076024e+001	-8.943183e+000	-2.138138e+001	-2.257310e+001	-1.658537e+002
	-2.056859e+001	-7.079200e+001	-2.003973e+001	-6.654554e+001	-2.228709e+001	-1.685191e+002	-8.796970e+000	-1.956726e+001
	-8.941871e+000	-2.141164e+001	-2.232228e+001	-1.684422e+002	-2.059904e+001	-7.469869e+001	-2.147184e+001	-8.034110e+001
	-2.258658e+001	-1.658731e+002	-8.800247e+000	-1.955615e+001	-2.146835e+001	-8.034954e+001	-2.096455e+001	-8.099062e+001
116973625	-1.858336e+001	-6.910806e+001	-2.018942e+001	-7.908928e+001	-9.213339e+000	8.139965e+001	-2.201230e+001	-6.222462e+001
	-2.017727e+001	-7.909747e+001	-1.745821e+001	-8.684698e+001	-2.184862e+001	-6.583574e+001	-9.086024e+000	8.336592e+001
	-9.210503e+000	8.141454e+001	-2.185098e+001	-6.584449e+001	-2.110721e+001	-8.456095e+001	-2.079852e+001	-8.478321e+001
	-2.202077e+001	-6.222938e+001	-9.086097e+000	8.338386e+001	-2.079938e+001	-8.470471e+001	-2.238307e+001	-8.686236e+001
122286063	-1.886482e+001	-8.235540e+001	-2.043555e+001	-8.380642e+001	-9.394440e+000	-1.746409e+002	-2.226836e+001	3.774202e+001
	-2.042144e+001	-8.380197e+001	-1.982379e+001	-8.119861e+001	-2.209468e+001	3.490349e+001	-9.252044e+000	-1.725089e+002
	-9.391870e+000	-1.745999e+002	-2.208697e+001	3.494934e+001	-2.177901e+001	-8.602046e+001	-2.167960e+001	-9.722019e+001
	-2.227066e+001	3.773816e+001	-9.252082e+000	-1.725202e+002	-2.167725e+001	-9.719712e+001	-2.034080e+001	-1.015177e+002
127598500	-1.719847e+001	-7.588277e+001	-1.920306e+001	-8.799286e+001	-9.622014e+000	-7.221547e+001	-2.191543e+001	1.435650e+002
	-1.920065e+001	-8.801739e+001	-1.805550e+001	-8.912028e+001	-2.167619e+001	1.401720e+002	-9.443123e+000	-7.002735e+001
	-9.622505e+000	-7.220358e+001	-2.168224e+001	1.401536e+002	-2.107011e+001	-7.265623e+001	-2.123986e+001	-9.004474e+001
	-2.191545e+001	1.435707e+002	-9.447419e+000	-7.005735e+001	-2.125174e+001	-9.010414e+001	-2.132302e+001	-9.606073e+001
132910938	-1.828052e+001	-1.021598e+002	-2.012228e+001	-1.011235e+002	-9.871470e+000	3.197369e+001	-2.180741e+001	-1.168509e+002
	-2.012458e+001	-1.011483e+002	-1.916409e+001	-1.002028e+002	-2.158050e+001	-1.205546e+002	-9.717083e+000	3.389462e+001
	-9.871064e+000	3.196906e+001	-2.156661e+001	-1.205562e+002	-1.985484e+001	-1.043349e+002	-2.066424e+001	-1.081443e+002
	-2.181367e+001	-1.169133e+002	-9.717605e+000	3.386760e+001	-2.064938e+001	-1.080827e+002	-2.106463e+001	-1.066360e+002
138223375	-1.797756e+001	-9.742034e+001	-1.958374e+001	-1.024778e+002	-9.964935e+000	1.349561e+002	-2.194646e+001	-1.150668e+001
	-1.958506e+001	-1.025034e+002	-1.777240e+001	-1.074347e+002	-2.178948e+001	-1.567720e+001	-9.818606e+000	1.370536e+002
	-9.970006e+000	1.349183e+002	-2.176552e+001	-1.567246e+001	-2.166216e+001	-1.180092e+002	-2.144210e+001	-1.115852e+002
	-2.196456e+001	-1.154477e+001	-9.820552e+000	1.370208e+002	-2.144073e+001	-1.116572e+002	-1.998838e+001	-1.043539e+002
143535813	-1.751594e+001	-1.076004e+002	-1.953743e+001	-1.112102e+002	-1.025298e+001	-1.218669e+002	-2.150781e+001	9.067453e+001
	-1.953137e+001	-1.111172e+002	-1.965475e+001	-1.199111e+002	-2.136536e+001	8.657766e+001	-1.011795e+001	-1.197009e+002
	-1.026341e+001	-1.219104e+002	-2.132803e+001	8.644965e+001	-2.360084e+001	-9.948886e+001	-2.214981e+001	-1.135223e+002
	-2.151976e+001	9.073468e+001	-1.011817e+001	-1.197666e+002	-2.214574e+001	-1.134627e+002	-1.979612e+001	-1.193763e+002
148848250	-1.942976e+001	-1.136057e+002	-2.038560e+001	-1.122612e+002	-1.034911e+001	-1.839224e+001	-2.184529e+001	-1.659721e+002
	-2.037911e+001	-1.122364e+002	-2.055446e+001	-1.232363e+002	-2.172497e+001	-1.702220e+002	-1.019034e+001	-1.587991e+001
	-1.035504e+001	-1.840702e+001	-2.168405e+001	-1.703090e+002	-2.136329e+001	-9.200641e+001	-2.144748e+001	-1.099358e+002
	-2.186607e+001	-1.660723e+002	-1.018914e+001	-1.598034e+001	-2.144295e+001	-1.099282e+002	-2.156301e+001	-1.073523e+002
154160688	-1.727608e+001	-1.190899e+002	-1.979858e+001	-1.202338e+002	-1.062645e+001	8.476878e+001	-2.146559e+001	-6.308125e+001
	-1.980286e+001	-1.201812e+002	-1.948333e+001	-1.112983e+002	-2.129453e+001	-6.715827e+001	-1.045287e+001	8.710970e+001
	-1.063617e+001	8.474623e+001	-2.126686e+001	-6.723878e+001	-1.968624e+001	-1.233077e+002	-1.996944e+001	-1.218396e+002
	-2.148624e+001	-6.297752e+001	-1.045359e+001	8.704765e+001	-1.996606e+001	-1.218197e+002	-2.059306e+001	-1.190574e+002
159473125	-1.973956e+001	-1.224369e+002	-2.016908e+001	-1.208168e+002	-1.076754e+001	-1.715375e+002	-2.162831e+001	3.925791e+001
	-2.016961e+001	-1.207946e+002	-2.049517e+001	-1.190755e+002	-2.144297e+001	3.501716e+001	-1.061404e+001	-1.691304e+002
	-1.076903e+001	-1.715797e+002	-2.143020e+001	3.483805e+001	-2.355386e+001	-1.314972e+002	-2.212895e+001	-1.323930e+002
	-2.162647e+001	3.933908e+001	-1.061293e+001	-1.691563e+002	-2.212955e+001	-1.323231e+002	-2.162133e+001	-1.320780e+002
164785563	-1.837601e+001	-1.196032e+002	-1.971533e+001	-1.249795e+002	-1.095626e+001	-6.896219e+001	-2.141337e+001	1.448881e+002
	-1.971362e+001	-1.249310e+002	-1.906331e+001	-1.220972e+002	-2.121086e+001	1.406295e+002	-1.077844e+001	-6.649160e+001
	-1.095729e+001	-6.898836e+001	-2.120248e+001	1.405306e+002	-2.123749e+001	-9.889566e+001	-2.154226e+001	-1.214883e+002
	-2.141369e+001	1.448774e+002	-1.077519e+001	-6.650007e+001	-2.154062e+001	-1.214714e+002	-2.003173e+001	-1.197354e+002
170098000	-1.807140e+001	-1.366717e+002	-1.944601e+001	-1.336363e+002	-1.123616e+001	3.479718e+001	-2.120691e+001	-1.138975e+002
	-1.944280e+001	-1.336661e+002	-1.907709e+001	-1.258591e+002	-2.095905e+001	-1.187016e+002	-1.106328e+001	3.737204e+001
	-1.123514e+001	3.481596e+001	-2.095999e+001	-1.186745e+002	-1.965935e+001	-1.225107e+002	-2.063386e+001	-1.351248e+002
	-2.120097e+001	-1.139734e+002	-1.106666e+001	3.735904e+001	-2.063426e+001	-1.351453e+002	-1.922384e+001	-1.378969e+002
175410438	-1.915214e+001	-1.235212e+002	-2.020804e+001	-1.308135e+002	-1.136214e+001	1.379438e+002	-2.130225e+001	-9.043010e+000
	-2.020138e+001	-1.308112e+002	-1.878926e+001	-1.247492e+002	-2.099453e+001	-1.427150e+001	-1.117245e+001	1.405318e+002
	-1.135957e+001	1.378821e+002	-2.098415e+001	-1.430855e+001	-2.096750e+001	-1.314970e+002	-2.231736e+001	-1.378946e+002
	-2.129725e+001	-9.041077e+000	-1.117513e+001	1.405611e+002	-2.231584e+001	-1.378269e+002	-2.210104e+001	-1.430857e+002
180722875	-1.722551e+001	-1.422368e+002	-1.892583e+001	-1.397286e+002	-1.167102e+001	-1.189854e+002	-2.082028e+001	9.403356e+001
	-1.892131e+001	-1.397795e+002	-1.872089e+001	-1.373622e+002	-2.059609e+001	8.820178e+001	-1.148382e+001	-1.163381e+002
	-1.166556e+001	-1.189773e+002	-2.060081e+001	8.822929e+001	-2.069881e+001	-1.442419e+002	-2.102529e+001	-1.451078e+002
	-2.080928e+001	9.404096e+001	-1.148630e+001	-1.163346e+002	-2.102884e+001	-1.452042e+002	-1.949202e+001	-1.438452e+002
186035313	-1.900717e+001	-1.430529e+002	-1.925946e+001	-1.448598e+002	-1.178445e+001	-1.505991e+001	-2.105787e+001	-1.636150e+002
	-1.925106e+001	-1.448517e+002	-1.868290e+001	-1.410076e+002	-2.086362e+001	-1.692790e+002	-1.160193e+001	-1.223893e+001
	-1.177997e+001	-1.512388e+001	-2.085137e+001	-1.692709e+002	-2.282417e+001	-1.382186e+002	-2.199266e+001	-1.457651e+002
	-2.107735e+001	-1.636012e+002	-1.160135e+001	-1.219507e+001	-2.199379e+001	-1.456593e+002	-2.278149e+001	-1.575328e+002
191347750	-1.714190e+001	-1.494227e+002	-1.876194e+001	-1.512676e+002	-1.204365e+001	8.775126e+001	-2.069280e+001	-5.928404e+001
	-1.876162e+001	-1.513324e+002	-1.775290e+001	-1.407263e+002	-2.054404e+001	-6.507669e+001	-1.184067e+001	9.053023e+001
	-1.203992e+001	8.771233e+001	-2.053882e+001	-6.506846e+001	-2.015948e+001	-1.409094e+002	-2.048868e+001	-1.444212e+002
	-2.070382e+001	-5.927683e+001	-1.183871e+001	9.056661e+001	-2.047828e+001	-1.443602e+002	-2.202761e+001	-1.452577e+002
196660188	-1.872540e+001	-1.558319e+002	-1.922417e+001	-1.593831e+002	-1.222929e+001	-1.680069e+002	-2.080422e+001	4.208896e+001
	-1.922640e+001	-1.593823e+002	-1.808372e+001	-1.472290e+002	-2.062617e+001	3.612173e+001	-1.204011e+001	-1.651347e+002
	-1.222576e+001	-1.679951e+002	-2.061829e+001	3.610834e+001	-2.116789e+001	-1.463562e+002	-2.027585e+001	-1.600957e+002
	-2.080458e+001	4.200875e+001	-1.203947e+001	-1.651519e+002	-2.028722e+001	-1.601784e+002	-2.037320e+001	-1.484981e+002
201972625	-1.728539e+001	-1.569436e+002	-1.859986e+001	-1.599378e+002	-1.240994e+001	-6.541692e+001	-2.060332e+001	1.474868e+002
	-1.859680e+001	-1.599458e+002	-1.714214e+001	-1.506784e+002	-2.044925e+001	1.415083e+002	-1.221155e+001	-6.251846e+001
	-1.240820e+001	-6.544868e+001	-2.044710e+001	1.414851e+002	-1.917040e+001	-1.410522e+002	-2.021716e+001	-1.547514e+002
	-2.060496e+001	1.474704e+002	-1.221357e+001	-6.253192e+001	-2.020722e+001	-1.547143e+002	-1.960546e+001	-1.475506e+002
207285063	-1.851277e+001	-1.663891e+002	-1.816876e+001	-1.688740e+002	-1.268261e+001	3.824839e+001	-2.040143e+001	-1.106192e+002
	-1.817707e+001	-1.689020e+002	-1.601548e+001	-1.620723e+002	-2.020675e+001	-1.165761e+002	-1.252737e+001	4.125336e+001
	-1.268105e+001	3.823692e+001	-2.020692e+001	-1.164873e+002	-1.859742e+001	-1.553627e+002	-1.956698e+001	-1.674227e+002
	-2.040438e+001	-1.106382e+002	-1.252315e+001	4.125016e+001	-1.957362e+001	-1.673844e+002	-1.836850e+001	-1.672284e+002
