! Created Wed Jan 26 16:49:16 2011
# hz S db R 50
! 3 Port Network Data from SP1.SP block
! freq  dbS11  angS11  dbS12  angS12  dbS13  angS13  
!       dbS21  angS21  
!       dbS22  angS22  dbS23  angS23  
!       dbS31  angS31  dbS32  angS32  
!       dbS33  angS33  
!     
            100000         -24.49217           35.08601         -0.3935301          -6.784641          -39.09299          -149.9927
                       -0.3940299          -6.840513          -25.06576           37.13702          -36.13457           48.88051
                        -39.07931          -150.5763           -36.0753           49.07997          -24.55886            36.2514

          42599500         -22.17789          -8.050728          -5.887867           82.79138          -25.80417          -43.66529
                        -5.888448            82.7853          -22.03389          -17.71899          -22.22153          -11.72898
                        -25.81623           -43.8115          -22.21271          -11.76904          -21.44458          -16.58329

          85099000         -20.82423           -61.1939          -7.653457          -171.5963          -24.68066            62.5533
                        -7.649643          -171.6324           -20.7025          -47.50886          -21.60151          -60.19877
                        -24.68342           62.50142          -21.60279          -60.22391          -21.95846          -62.57008

         127598500         -19.56395          -91.51402          -9.066871          -63.93139          -23.83333           172.9439
                        -9.065533            -63.939          -20.17786          -93.98992          -21.83755          -96.07086
                        -23.83898           172.9377          -21.84337          -96.08545          -21.18345          -90.93953

         170098000         -19.60002           -108.653          -10.45059           44.04994           -22.8127          -77.16235
                        -10.44903           44.06696          -17.56619          -114.9701          -20.19676          -127.3476
                          -22.811          -77.13537          -20.19859          -127.3948           -18.3502          -129.9855

         212597500         -17.95922          -164.5048          -11.79392           154.3534          -22.33166           29.96651
                        -11.79562           154.3579          -18.14403          -162.5635          -19.32275          -164.1169
                        -22.33467           29.92291           -19.3178          -164.0587          -17.34691          -167.2517

         255097000         -17.92236           164.8668          -13.06473          -94.28031          -22.19549           137.6324
                        -13.06313          -94.32751          -16.72341           152.3734          -18.03531           149.1495
                        -22.19844           137.5954          -18.03024           149.1353          -16.43307           160.8311

         297596500         -17.86003           115.4585          -14.29715           17.97165          -22.73088          -115.0144
                        -14.29503           17.96235          -17.85535           115.1797          -17.34913           110.1609
                        -22.72885          -114.9753          -17.34534            110.152          -15.58717           110.6906

         340096000         -16.21661            79.6981          -15.53246           130.4666          -22.82787          -4.181698
                        -15.53696           130.4321          -16.76239           69.10004          -17.88292           70.24104
                        -22.82524           -4.17018          -17.87701           70.28515          -15.84059           69.09659

         382595500         -16.54241           33.46863          -16.51428          -115.4188          -23.48771           109.3152
                        -16.51458          -115.3997          -15.81465           24.32623          -17.96608           30.22772
                         -23.4978           109.3944          -17.96977           30.23999          -16.27584           32.17809

         425095000         -15.93599          -9.225369          -17.73015           -2.51925           -23.3345          -140.4262
                        -17.73306          -2.529936          -14.82657          -13.76081          -16.68865            -6.5948
                        -23.32856          -140.3879          -16.68594          -6.532938          -14.16448          -6.315359

         467594500          -14.4713          -48.52508           -18.8144           112.6787          -23.98733          -30.47393
                        -18.81594           112.6863          -14.66554           -55.6387          -15.84759          -51.80255
                        -23.99661          -30.53049          -15.84703          -51.81219           -13.1311          -48.74499

         510094000         -14.95328          -90.68125          -19.94981          -133.4287          -24.46115           81.82934
                         -19.9354          -133.3948          -14.86241          -96.35236          -17.08359          -91.78483
                        -24.47637           81.76383          -17.08583          -91.79546          -13.07709          -97.26438

         552593500         -14.61129          -128.5102          -20.97604          -18.50942          -25.14415          -163.8667
                        -20.97933          -18.49012          -14.66214          -135.8102          -15.93181          -136.4293
                        -25.15013          -163.8979          -15.93057          -136.4306          -12.56111          -138.3274

         595093000         -15.11158          -175.2664          -22.35591            97.2247          -25.05519          -51.22109
                         -22.3617            97.2458          -14.10655          -175.4975          -16.94889          -177.6068
                         -25.0608          -51.16258          -16.94799          -177.5828          -12.94306          -179.5862

         637592500         -13.96972           147.5475            -23.042          -145.8838          -25.87901           63.96048
                        -23.03166          -145.8568          -14.99821            136.507          -18.08578           139.1211
                        -25.89036           63.94633          -18.08587           139.1168          -14.74838           129.1365

         680092000         -14.44984           114.1269          -24.73552          -25.65582          -25.68836           172.5209
                        -24.73162          -25.63707          -13.83176           96.64474          -19.07324           100.4583
                        -25.68864           172.5421           -19.0865           100.4939          -13.98866           96.42844

         722591500         -15.00575           75.59007          -24.17738           90.90813          -27.45018          -71.51833
                         -24.1806           90.98014          -15.61624           60.95274          -18.16951           78.06758
                        -27.45453          -71.40366          -18.17646           78.10807          -16.91097           75.58713

         765091000         -14.07989           23.40572          -25.26776          -151.4347          -27.71656           37.69238
                        -25.25095           -151.328          -13.01983           23.51583          -16.41217           30.92506
                        -27.72891           37.74711          -16.41912           30.93906          -12.80208           36.56877

         807590500         -14.75851        -0.04902346          -25.67884          -39.72559          -28.67998            162.815
                        -25.67838           -39.6696          -13.22405          -25.83318          -17.87274           8.115538
                        -28.65468           162.7915          -17.88137           8.139347          -11.89402          -9.058505

         850090000         -14.24542          -48.75718          -26.44181           79.36061          -29.92001          -90.04168
                        -26.43731           79.23712          -12.32183          -57.52386          -16.51036          -52.94354
                        -29.92308          -90.15372          -16.51618          -52.88001          -10.30217          -63.92576

         892589500         -13.65806          -92.79682          -27.39043          -166.9281          -30.02257            34.4905
                        -27.37322          -166.9662          -12.34551          -100.1492          -17.71902          -82.49614
                        -30.01833           34.58066          -17.72149          -82.48214          -11.00874          -112.5703

         935089000          -13.5475          -128.8632          -28.24372          -48.80098           -30.5482           147.1031
                        -28.24926          -48.79994          -12.46464          -137.9933          -16.86104          -129.3067
                        -30.56588           147.0541          -16.86228          -129.3066          -11.91854          -142.3391

         977588500         -11.60516           -174.468          -28.99429           65.69841          -30.83756          -93.43824
                        -29.02174           65.63614          -11.86926           172.0481          -16.35064          -172.0345
                        -30.81857          -93.22713          -16.35178          -172.0145          -11.73202           167.8759

     1.020088e+009         -12.63502           143.0509           -29.6265           -172.181          -31.42162           17.71423
                        -29.64136          -172.1257          -11.54982           131.4992          -16.31882           149.7427
                        -31.41534           17.47076          -16.31773           149.7864          -11.71353           131.6497

    1.0625875e+009         -12.33256           92.95492          -30.26616          -57.95751          -31.90305           138.8105
                        -30.26613          -58.04672          -12.49434           85.83833          -16.80576            119.712
                         -31.9026           138.8954          -16.80524           119.6896          -12.58201           96.10354

     1.105087e+009         -12.24696           50.62381          -30.90845           61.71483          -32.84162          -108.7619
                        -30.90369           61.75412          -12.12607           48.27914          -15.52178           74.28052
                         -32.8373           -108.796          -15.51013           74.25178          -12.07523           57.42177

    1.1475865e+009         -13.09967           13.12577          -31.45804           175.1654          -32.69539           9.514797
                        -31.46076           175.3214          -11.96148           8.520751          -16.33072           31.27346
                        -32.69773           9.608306          -16.32584           31.19537          -11.50564           13.90576

     1.190086e+009         -13.14211          -33.01462          -32.01641           -63.8699          -33.57231           123.6575
                        -32.08853           -64.0434          -11.99221          -40.10738          -16.48046          -13.55285
                        -33.57915           123.8548          -16.48444          -13.67178          -10.48752          -36.02308

    1.2325855e+009         -12.90995          -78.11645           -32.5096           51.32986          -34.10521          -116.8119
                        -32.47057           51.34164          -11.80475          -81.96401          -17.36439          -49.45774
                        -34.11674          -116.9187          -17.37785          -49.51212          -10.73749          -82.02584

     1.275085e+009         -13.30925          -119.8482          -33.38753           168.2742          -34.62883          -3.322536
                        -33.42747           168.2184           -11.7318           -116.879          -17.64002          -89.92038
                        -34.60618            -3.2403          -17.65345          -89.98548          -11.22561          -118.4856

    1.3175845e+009         -13.43509          -161.7492          -33.50621          -75.76635          -35.51487           120.0486
                        -33.48576          -75.88341          -12.60592          -156.8975          -17.57538          -131.2982
                        -35.51532           119.9515          -17.59507            -131.45          -10.76886          -158.0378

     1.360084e+009         -13.39926           152.6347          -34.74127           46.20213          -35.54487          -130.3471
                        -34.74439           46.48443          -12.09919           161.3265          -16.56032          -175.1417
                        -35.52938          -130.2704          -16.57888          -175.1009          -11.84859           160.3267

    1.4025835e+009          -13.7537           108.5043          -35.17088           157.4596          -35.65727          -8.191559
                        -35.13941            157.546           -13.2264            128.218          -17.11948           143.3953
                        -35.65759          -8.249019          -17.13247           143.4464          -12.27564           121.7891

     1.445083e+009         -13.47513           65.04777          -35.56659          -82.13365          -37.33803           106.1103
                        -35.52803          -82.72864           -11.4493           66.81095          -18.56624            103.131
                        -37.28358           105.7699          -18.57773             103.13          -12.07754           88.32031

    1.4875825e+009         -13.85441           32.41063          -36.45522           34.92869          -37.17208          -140.8329
                         -36.5004           35.09225           -12.3747           29.55598          -21.37992           58.32262
                        -37.13928          -140.7106          -21.37592           58.31097          -12.78382           31.02321

     1.530082e+009         -12.94715          -12.28835          -37.27507            149.061           -37.0095          -17.24578
                        -37.22677           149.0687          -12.37833          -20.69033          -21.30735           55.36635
                        -37.00476           -17.0139          -21.32223           55.39358          -14.09785           12.16712

    1.5725815e+009         -13.16385          -55.85217          -37.19189          -99.44698          -39.95181           97.03157
                        -37.20757          -99.73287           -11.8536          -43.06185          -26.61532          -5.742455
                        -39.94967           97.48197          -26.61342          -5.577121          -10.91126          -27.75743

     1.615081e+009          -14.6766          -119.2446          -37.78557           39.15886          -39.15771          -139.7513
                        -37.74104           39.28397          -12.75677          -107.4024          -17.27639          -38.17652
                        -39.21681          -139.9843          -17.26965          -38.29943          -12.16073          -92.57137

    1.6575805e+009         -15.69956          -155.4247          -38.54086           146.1047           -38.5851          -19.03753
                         -38.5015           146.1437          -12.34808          -143.4386          -19.39679          -78.78329
                        -38.61057          -19.01278          -19.39527          -78.78815           -12.5324           -129.355

      1.70008e+009         -15.02273           161.6905          -39.08337          -94.61708          -39.13025           92.49154
                        -39.12709          -94.55529          -14.20092          -173.1143          -20.09025          -125.4454
                        -39.13853           92.18813          -20.08132          -125.4689          -12.49692          -168.6348

    1.7425795e+009         -15.94657           121.3925          -39.34244           18.53833          -39.64408          -143.0396
                        -39.28377           18.14177          -15.76388           131.0689          -20.91316           -152.281
                        -39.62468           -143.285          -20.90269          -152.2119          -14.17968           139.1531

     1.785079e+009          -18.0807           79.52708          -39.62659           148.0114          -40.85898           -37.2619
                          -39.566           147.8423          -17.13367           90.55278          -20.03277          -175.0701
                        -40.85848          -36.53041          -20.02308          -175.0284          -17.27388           104.0768

    1.8275785e+009         -17.58551           33.06877          -42.07678          -103.1892          -39.24713           83.38502
                          -42.161          -102.8868          -20.24504           43.42397           -18.3831           153.4889
                        -39.23437           82.78856          -18.37716            153.492          -17.41912           85.24886

     1.870078e+009         -18.81649          0.9940397          -40.08206           16.07731          -41.37147           -154.085
                        -40.11142           16.24642          -20.33408           10.21614          -17.48362            106.205
                        -41.36019          -154.1295          -17.49382           106.2259          -16.41073           46.63098

    1.9125775e+009         -18.62825          -45.58881          -44.05288           139.4227          -40.43195          -44.01154
                        -44.08943           140.2645          -21.11344          -25.73979          -18.01912           64.33607
                        -40.41099          -44.14459          -18.02963           64.34968          -16.79392           4.068381

     1.955077e+009          -20.6135          -89.90644          -41.32423          -126.3699          -42.34511           90.95209
                        -41.33436           -126.372          -17.70971          -61.09801          -17.47296            33.1923
                        -42.30973           90.60899          -17.47231           33.18215          -15.78113          -40.43248

    1.9975765e+009         -20.74632          -139.9867          -41.11431           20.98958          -44.42533           179.3972
                        -41.03893           21.43822          -18.64041          -98.51169          -15.67204          -9.132358
                        -44.37623           179.5138          -15.66745          -9.151571          -16.94756           -67.8849

     2.040076e+009         -24.41121          -139.7428          -43.98798           120.5362          -41.51181          -44.18985
                        -43.94179           120.9296          -18.11308           -122.824          -14.00932           -48.6155
                        -41.54824           -44.0804          -14.01166          -48.66872          -16.03786          -105.4868

    2.0825755e+009         -17.97106           171.9699          -41.43096          -114.2039           -46.4883           68.53447
                        -41.46253          -114.1787          -16.95314           -161.176          -13.43536          -101.5163
                        -46.54631           68.72381          -13.44658          -101.5823          -13.79884          -134.9682

     2.125075e+009         -17.60302           151.2667          -46.24944          -11.25487          -42.49255          -175.2864
